(1708581158.284202) can0 0E001001#
(1708581158.284277) can0 0E001001#
(1708581158.284328) can0 0E001001#
(1708581158.284362) can0 0E001001#
(1708581158.284407) can0 0E001001#
(1708581158.284456) can0 0E001001#
(1708581158.284554) can0 0E001001#
(1708581158.284603) can0 0E001001#
(1708581158.284694) can0 0E001001#
(1708581158.284772) can0 0E001001#
(1708581158.284820) can0 0E001001#
(1708581158.284909) can0 0E001001#
(1708581158.284991) can0 0E001001#
(1708581158.285040) can0 0E001001#
(1708581158.285128) can0 0E001001#
(1708581158.285208) can0 0E001001#
(1708581158.285260) can0 0E005001#
(1708581158.285426) can0 1E001001#0000000000000000
(1708581158.285495) can0 0E001001#
(1708581158.285646) can0 1E005001#0000000000000000
(1708581158.285799) can0 1E009001#0000000000000000
(1708581158.285945) can0 1E00D001#0000000000000000
(1708581158.286104) can0 1E035001#0000000000000000
(1708581158.286245) can0 1E039001#0000000000000000
(1708581158.286388) can0 1E03D001#0000000000000000
(1708581158.286535) can0 1E011001#0000000000000000
(1708581158.286684) can0 1E015001#0000000000000000
(1708581158.286826) can0 1E019001#0000000000000000
(1708581158.286978) can0 1E041001#447A000000000000
(1708581158.287124) can0 1E045001#0000000000000000
(1708581158.287269) can0 1E049001#4170000000000000
(1708581158.287425) can0 1E04D001#000000000000002C
(1708581158.287568) can0 1E051001#000000000000002C
(1708581158.287760) can0 1E055001#000000000000002A
(1708581158.287859) can0 1E01D001#0000000000000000
(1708581158.288002) can0 1E059001#42A6AAAB00000000
(1708581158.288141) can0 1E05D001#437A000000000014
(1708581158.288285) can0 1E061001#43FED79200000000
(1708581158.288425) can0 1E065001#4270000000000013
(1708581158.288573) can0 1E069001#4270000000000013
(1708581158.288711) can0 1E06D001#41463D9900000000
(1708581158.288859) can0 1E071001#0000000000000000
(1708581158.289007) can0 1E075001#0000000000000000
(1708581158.289154) can0 1E079001#0000000000000011
(1708581158.289302) can0 1E07D001#000000000000002A
(1708581158.289452) can0 1E081001#0000000000000000
(1708581158.289600) can0 1E085001#0000000000000000
(1708581158.289747) can0 1E089001#000000000000002A
(1708581158.289894) can0 1E08D001#000000000000002A
(1708581158.290037) can0 1E091001#3F80000000000031
(1708581158.290185) can0 1E095001#3F80000000000032
(1708581158.290328) can0 1E099001#0000000000000000
(1708581158.290473) can0 1E09D001#42B507AE00000000
(1708581158.290615) can0 1E0A1001#417DB64500000000
(1708581158.290758) can0 1E0A5001#415940B300000000
(1708581158.290905) can0 1E0A9001#4020000000000000
(1708581158.291047) can0 1E0AD001#40324FB300000000
(1708581158.291195) can0 1E0B1001#0000000000000000
(1708581158.291342) can0 1E0B5001#0000000000000000
(1708581158.291494) can0 1E0B9001#0000000000000000
(1708581158.291640) can0 1E0BD001#0000000000000000
(1708581158.291793) can0 1E0C1001#0000000000000000
(1708581158.291939) can0 1E0C5001#0000000000000000
(1708581158.292092) can0 1E0C9001#0000000000000000
(1708581158.292237) can0 1E0CD001#0000000000000000
(1708581158.292386) can0 1E0D1001#0000000000000000
(1708581158.292535) can0 1E0D5001#0000000000000000
(1708581158.292688) can0 1E0D9001#0000000000000000
(1708581158.292833) can0 1E0DD001#0000000000000000
(1708581158.292980) can0 1E0E5001#0000000000000000
(1708581158.293124) can0 1E0E9001#41AC79B800000014
(1708581158.293272) can0 1E0ED001#0000000000000000
(1708581158.293422) can0 1E0F1001#0000000000000000
(1708581158.293571) can0 1E0F5001#0000000000000000
(1708581158.293718) can0 1E0E1001#0000000000000000
(1708581158.293866) can0 1E0F9001#0000000000000000
(1708581158.294014) can0 1E0FD001#0000000000000000
(1708581158.294166) can0 1E101001#0000000000000000
(1708581158.294309) can0 1E105001#0000000000000000
(1708581158.294458) can0 1E109001#0000000000000000
(1708581158.294606) can0 1E10D001#0000000000000000
(1708581158.294752) can0 1E111001#0000000000000000
(1708581158.294906) can0 1E115001#0000000000000000
(1708581158.295042) can0 1E119001#0000000000000000
(1708581158.295193) can0 1E11D001#0000000000000000
(1708581158.295338) can0 1E121001#0000000000000000
(1708581158.295488) can0 1E125001#0000000000000000
(1708581158.295636) can0 1E129001#0000000000000000
(1708581158.295777) can0 1E12D001#0000000000000000
(1708581158.295925) can0 1E131001#0000000000000000
(1708581158.296077) can0 1E135001#0000000000000000
(1708581158.296217) can0 1E139001#4974240000000000
(1708581158.296361) can0 1E13D001#0000000000000000
(1708581158.296511) can0 1E141001#0000000000000000
(1708581158.296656) can0 1E145001#0000000000000000
(1708581158.296810) can0 1E149001#0000000000000000
(1708581158.296953) can0 1E14D001#0000000000000000
(1708581158.297110) can0 1E151001#0000000000000000
(1708581158.297249) can0 1E155001#0000000000000000
(1708581158.297391) can0 1E159001#0000000000000000
(1708581158.297540) can0 1E15D001#40C0000000000000
(1708581158.297694) can0 1E161001#4190000000000000
(1708581158.297839) can0 1E165001#0000000000000000
(1708581158.297976) can0 1E169001#0000000000000000
(1708581158.298122) can0 1E16D001#0000000000000000
(1708581158.298268) can0 1E171001#0000000000000000
(1708581158.298418) can0 1E175001#0000000000000000
(1708581158.298565) can0 1E179001#0000000000000000
(1708581158.298714) can0 1E17D001#0000000000000000
(1708581158.298866) can0 1E181001#0000000000000000
(1708581158.299013) can0 1E185001#0000000000000000
(1708581158.299154) can0 1E189001#000000000000002A
(1708581158.299306) can0 1E18D001#0000000000000000
(1708581158.299442) can0 1E191001#0000000000000000
(1708581158.299590) can0 1E195001#0000000000000000
(1708581158.299743) can0 1E199001#0000000000000000
(1708581158.299882) can0 1E19D001#0000000000000000
(1708581158.300032) can0 1E1A1001#0000000000000000
(1708581158.300178) can0 1E1A5001#0000000000000000
(1708581158.300325) can0 1E1A9001#0000000000000000
(1708581158.300472) can0 1E1AD001#0000000000000000
(1708581158.300616) can0 1E1B1001#0000000000000000
(1708581158.300766) can0 1E1B5001#0000000000000000
(1708581158.300911) can0 1E1B9001#0000000000000000
(1708581158.301062) can0 1E1BD001#0000000000000000
(1708581158.301210) can0 1E1C1001#0000000000000000
(1708581158.301361) can0 1E1C5001#0000000000000000
(1708581158.301504) can0 1E1C9001#0000000000000000
(1708581158.301651) can0 1E1CD001#0000000000000000
(1708581158.301798) can0 1E021001#0000000000000000
(1708581158.301951) can0 1E025001#0000000000000000
(1708581158.302100) can0 1E029001#0000000000000000
(1708581158.302252) can0 1E02D001#0000000000000000
(1708581158.302392) can0 1E031001#0000000000000000
(1708581158.302991) can0 1E001001#0000000000000012
(1708581158.303117) can0 1E005001#0000000000000000
(1708581158.303257) can0 1E009001#40AE8CA400000000
(1708581158.303390) can0 1E00D001#400CCCCD00000000
(1708581158.303541) can0 1E011001#0000000000000000
(1708581158.303736) can0 1E015001#4143EB5E00000000
(1708581158.303831) can0 1E019001#41F0000000000003
(1708581158.303971) can0 1E01D001#42D1666600000000
(1708581158.304120) can0 1E035001#0000000000000028
(1708581158.304256) can0 1E039001#410CCCCD00000000
(1708581158.304404) can0 1E03D001#42C8000000000000
(1708581158.304548) can0 1E041001#C47A000000000000
(1708581158.304702) can0 1E045001#0000000000000000
(1708581158.304849) can0 1E049001#4170000000000000
(1708581158.304996) can0 1E04D001#000000000000002C
(1708581158.305143) can0 1E051001#000000000000002C
(1708581158.305301) can0 1E055001#000000000000002A
(1708581158.305429) can0 1E059001#42A6AAAB00000000
(1708581158.305568) can0 1E05D001#434AFA2100000018
(1708581158.305712) can0 1E061001#4201A5B700000000
(1708581158.305850) can0 1E065001#4270000000000013
(1708581158.305997) can0 1E069001#4270000000000013
(1708581158.306147) can0 1E06D001#413E5DFA00000000
(1708581158.306304) can0 1E071001#0000000000000000
(1708581158.306469) can0 1E075001#0000000000000000
(1708581158.306589) can0 1E079001#0000000000000011
(1708581158.306752) can0 1E07D001#000000000000002A
(1708581158.306903) can0 1E081001#0000000000000000
(1708581158.307050) can0 1E085001#0000000000000000
(1708581158.307194) can0 1E089001#000000000000002A
(1708581158.307332) can0 1E08D001#000000000000002A
(1708581158.307470) can0 1E091001#3F80000000000031
(1708581158.307607) can0 1E095001#3F80000000000032
(1708581158.307788) can0 1E099001#0000000000000000
(1708581158.307893) can0 1E09D001#42B507AE00000000
(1708581158.308037) can0 1E0A1001#417DB64500000000
(1708581158.308176) can0 1E0A5001#415940B300000000
(1708581158.308327) can0 1E0A9001#4020000000000000
(1708581158.308466) can0 1E0AD001#403943C000000000
(1708581158.308612) can0 1E0B1001#0000000000000000
(1708581158.308765) can0 1E0B5001#0000000000000000
(1708581158.308911) can0 1E0B9001#0000000000000000
(1708581158.309061) can0 1E0BD001#0000000000000000
(1708581158.309211) can0 1E0C1001#0000000000000000
(1708581158.309359) can0 1E0C5001#0000000000000000
(1708581158.309508) can0 1E0C9001#0000000000000000
(1708581158.309656) can0 1E0CD001#0000000000000000
(1708581158.309805) can0 1E0D1001#0000000000000000
(1708581158.309955) can0 1E0D5001#0000000000000000
(1708581158.310098) can0 1E0D9001#410CCCCD00000000
(1708581158.310248) can0 1E0DD001#0000000000000000
(1708581158.310387) can0 1E0E1001#40ACEB3D00000000
(1708581158.310538) can0 1E0E5001#0000000000000000
(1708581158.310680) can0 1E0E9001#4135E67F00000000
(1708581158.310829) can0 1E0ED001#0000000000000000
(1708581158.310978) can0 1E0F5001#0000000000000000
(1708581158.311129) can0 1E0F9001#0000000000000000
(1708581158.311275) can0 1E0FD001#0000000000000000
(1708581158.311422) can0 1E101001#0000000000000000
(1708581158.311569) can0 1E105001#0000000000000000
(1708581158.311719) can0 1E0F1001#0000000000000000
(1708581158.311873) can0 1E109001#0000000000000000
(1708581158.312017) can0 1E10D001#0000000000000000
(1708581158.312166) can0 1E111001#0000000000000000
(1708581158.312310) can0 1E115001#0000000000000000
(1708581158.312460) can0 1E119001#0000000000000000
(1708581158.312606) can0 1E11D001#0000000000000000
(1708581158.312753) can0 1E121001#0000000000000000
(1708581158.312898) can0 1E125001#0000000000000000
(1708581158.313042) can0 1E129001#0000000000000000
(1708581158.313190) can0 1E12D001#0000000000000000
(1708581158.313336) can0 1E131001#0000000000000000
(1708581158.313488) can0 1E135001#0000000000000000
(1708581158.313625) can0 1E139001#4974240000000000
(1708581158.313778) can0 1E13D001#0000000000000000
(1708581158.313944) can0 1E141001#0000000000000000
(1708581158.314076) can0 1E145001#0000000000000000
(1708581158.314232) can0 1E149001#0000000000000000
(1708581158.314365) can0 1E14D001#0000000000000000
(1708581158.314512) can0 1E151001#0000000000000000
(1708581158.314671) can0 1E155001#0000000000000000
(1708581158.314804) can0 1E159001#0000000000000000
(1708581158.314957) can0 1E15D001#40C0000000000000
(1708581158.315098) can0 1E161001#4190000000000000
(1708581158.315242) can0 1E165001#0000000000000000
(1708581158.315388) can0 1E169001#0000000000000000
(1708581158.315533) can0 1E16D001#0000000000000000
(1708581158.315723) can0 1E171001#0000000000000000
(1708581158.315832) can0 1E175001#0000000000000000
(1708581158.315977) can0 1E179001#0000000000000000
(1708581158.316126) can0 1E17D001#0000000000000000
(1708581158.316272) can0 1E181001#0000000000000000
(1708581158.316419) can0 1E185001#0000000000000000
(1708581158.316570) can0 1E189001#000000000000002A
(1708581158.316707) can0 1E18D001#0000000000000000
(1708581158.316851) can0 1E191001#0000000000000000
(1708581158.317008) can0 1E195001#0000000000000000
(1708581158.317146) can0 1E199001#0000000000000000
(1708581158.317294) can0 1E19D001#0000000000000000
(1708581158.317439) can0 1E1A1001#0000000000000000
(1708581158.317588) can0 1E1A5001#0000000000000000
(1708581158.317735) can0 1E1A9001#0000000000000000
(1708581158.317881) can0 1E1AD001#0000000000000000
(1708581158.318027) can0 1E1B1001#0000000000000000
(1708581158.318177) can0 1E1B5001#0000000000000000
(1708581158.318321) can0 1E1B9001#0000000000000000
(1708581158.318472) can0 1E1BD001#0000000000000000
(1708581158.318618) can0 1E1C1001#0000000000000000
(1708581158.318768) can0 1E1C5001#0000000000000000
(1708581158.318912) can0 1E1C9001#0000000000000000
(1708581158.319062) can0 1E1CD001#0000000000000000
(1708581158.319205) can0 1E021001#42F0000000000000
(1708581158.319348) can0 1E025001#BFAAAAA800000000
(1708581158.319494) can0 1E029001#42C8000000000000
(1708581158.319638) can0 1E02D001#0000000000000000
(1708581158.319799) can0 1E031001#0000000000000026
(1708581158.319959) can0 1E001001#0000000000000022
(1708581158.320104) can0 1E005001#0000000000000000
(1708581158.320247) can0 1E009001#40AC376900000000
(1708581158.320386) can0 1E00D001#400CCCCD00000000
(1708581158.320538) can0 1E011001#0000000000000000
(1708581158.320676) can0 1E015001#4143EB5E00000000
(1708581158.320827) can0 1E019001#41F0000000000003
(1708581158.320967) can0 1E01D001#42D1666600000000
(1708581158.321113) can0 1E035001#0000000000000028
(1708581158.321257) can0 1E039001#410CCCCD00000000
(1708581158.321400) can0 1E03D001#41D7641800000000
(1708581158.321542) can0 1E041001#C45FC56700000000
(1708581158.321698) can0 1E045001#0000000000000000
(1708581158.321838) can0 1E049001#4170000000000000
(1708581158.321983) can0 1E04D001#000000000000002C
(1708581158.322132) can0 1E051001#000000000000002C
(1708581158.322286) can0 1E055001#000000000000002A
(1708581158.322422) can0 1E059001#42A6AAAB00000000
(1708581158.322564) can0 1E05D001#430E2FC400000018
(1708581158.322713) can0 1E061001#411F0E5A00000000
(1708581158.322860) can0 1E065001#4270000000000013
(1708581158.322992) can0 1E069001#4270000000000013
(1708581158.323139) can0 1E06D001#413EB5D000000000
(1708581158.323295) can0 1E071001#0000000000000000
(1708581158.323442) can0 1E075001#0000000000000000
(1708581158.323590) can0 1E079001#0000000000000011
(1708581158.323780) can0 1E07D001#000000000000002A
(1708581158.323867) can0 1E081001#0000000000000000
(1708581158.324046) can0 1E085001#0000000000000000
(1708581158.324173) can0 1E089001#000000000000002A
(1708581158.324330) can0 1E08D001#000000000000002A
(1708581158.324465) can0 1E091001#3F80000000000031
(1708581158.324607) can0 1E095001#3F80000000000032
(1708581158.324760) can0 1E099001#0000000000000000
(1708581158.324891) can0 1E09D001#42B507AE00000000
(1708581158.325035) can0 1E0A1001#417DB64500000000
(1708581158.325176) can0 1E0A5001#415940B300000000
(1708581158.325321) can0 1E0A9001#4020000000000000
(1708581158.325465) can0 1E0AD001#4036D04000000000
(1708581158.325613) can0 1E0B1001#0000000000000000
(1708581158.325761) can0 1E0B5001#0000000000000000
(1708581158.325915) can0 1E0B9001#0000000000000000
(1708581158.326060) can0 1E0BD001#0000000000000000
(1708581158.326209) can0 1E0C1001#0000000000000000
(1708581158.326360) can0 1E0C5001#0000000000000000
(1708581158.326506) can0 1E0C9001#0000000000000000
(1708581158.326654) can0 1E0CD001#0000000000000000
(1708581158.326807) can0 1E0D1001#0000000000000000
(1708581158.326953) can0 1E0D5001#0000000000000000
(1708581158.327095) can0 1E0D9001#410CCCCD00000000
(1708581158.327245) can0 1E0DD001#0000000000000000
(1708581158.327388) can0 1E0E1001#40ABE60100000000
(1708581158.327542) can0 1E0E5001#0000000000000000
(1708581158.327715) can0 1E0E9001#408E1BC600000000
(1708581158.327830) can0 1E0ED001#0000000000000000
(1708581158.327979) can0 1E0F5001#0000000000000000
(1708581158.328125) can0 1E0F9001#0000000000000000
(1708581158.328278) can0 1E0FD001#0000000000000000
(1708581158.328423) can0 1E101001#0000000000000000
(1708581158.328574) can0 1E105001#0000000000000000
(1708581158.328727) can0 1E0F1001#0000000000000000
(1708581158.328887) can0 1E109001#0000000000000000
(1708581158.329019) can0 1E10D001#0000000000000000
(1708581158.329178) can0 1E111001#0000000000000000
(1708581158.329317) can0 1E115001#0000000000000000
(1708581158.329468) can0 1E119001#0000000000000000
(1708581158.329611) can0 1E11D001#0000000000000000
(1708581158.329758) can0 1E121001#0000000000000000
(1708581158.329910) can0 1E125001#0000000000000000
(1708581158.330048) can0 1E129001#0000000000000000
(1708581158.330192) can0 1E12D001#0000000000000000
(1708581158.330336) can0 1E131001#0000000000000000
(1708581158.330486) can0 1E135001#0000000000000000
(1708581158.330643) can0 1E139001#4974240000000000
(1708581158.330776) can0 1E13D001#0000000000000000
(1708581158.330932) can0 1E141001#0000000000000000
(1708581158.331078) can0 1E145001#0000000000000000
(1708581158.331226) can0 1E149001#0000000000000000
(1708581158.331363) can0 1E14D001#0000000000000000
(1708581158.331531) can0 1E151001#0000000000000000
(1708581158.331709) can0 1E155001#0000000000000000
(1708581158.331831) can0 1E159001#0000000000000000
(1708581158.331971) can0 1E15D001#40C0000000000000
(1708581158.332100) can0 1E161001#4190000000000000
(1708581158.332240) can0 1E165001#0000000000000000
(1708581158.332380) can0 1E169001#0000000000000000
(1708581158.332529) can0 1E16D001#0000000000000000
(1708581158.332678) can0 1E171001#0000000000000000
(1708581158.332827) can0 1E175001#0000000000000000
(1708581158.332972) can0 1E179001#0000000000000000
(1708581158.333118) can0 1E17D001#0000000000000000
(1708581158.333267) can0 1E181001#0000000000000000
(1708581158.333415) can0 1E185001#0000000000000000
(1708581158.333560) can0 1E189001#000000000000002A
(1708581158.333711) can0 1E18D001#0000000000000000
(1708581158.333853) can0 1E191001#0000000000000000
(1708581158.333998) can0 1E195001#0000000000000000
(1708581158.334145) can0 1E199001#0000000000000000
(1708581158.334294) can0 1E19D001#0000000000000000
(1708581158.334441) can0 1E1A1001#0000000000000000
(1708581158.334587) can0 1E1A5001#0000000000000000
(1708581158.334736) can0 1E1A9001#0000000000000000
(1708581158.334877) can0 1E1AD001#0000000000000000
(1708581158.335028) can0 1E1B1001#0000000000000000
(1708581158.335174) can0 1E1B5001#0000000000000000
(1708581158.335325) can0 1E1B9001#0000000000000000
(1708581158.335472) can0 1E1BD001#0000000000000000
(1708581158.335622) can0 1E1C1001#0000000000000000
(1708581158.335775) can0 1E1C5001#0000000000000000
(1708581158.335915) can0 1E1C9001#0000000000000000
(1708581158.336063) can0 1E1CD001#0000000000000000
(1708581158.336212) can0 1E021001#42F0000000000000
(1708581158.336352) can0 1E025001#BFAAAAA800000000
(1708581158.336494) can0 1E029001#42C8000000000000
(1708581158.336643) can0 1E02D001#0000000000000000
(1708581158.336791) can0 1E031001#0000000000000026
(1708581158.336966) can0 1E001001#0000000000000034
(1708581158.337106) can0 1E005001#0000000000000000
(1708581158.337246) can0 1E009001#4191506F00000000
(1708581158.337394) can0 1E00D001#4109999A00000000
(1708581158.337541) can0 1E011001#0000000000000000
(1708581158.337680) can0 1E015001#412940B300000000
(1708581158.337825) can0 1E019001#41F0000000000003
(1708581158.337969) can0 1E01D001#42E5921900000000
(1708581158.338115) can0 1E035001#0000000000000028
(1708581158.338257) can0 1E039001#4209999A00000000
(1708581158.338409) can0 1E03D001#0000000000000000
(1708581158.338562) can0 1E041001#C3C087EA00000000
(1708581158.338699) can0 1E045001#0000000000000000
(1708581158.338905) can0 1E049001#4170000000000000
(1708581158.338971) can0 1E04D001#000000000000002C
(1708581158.339167) can0 1E051001#000000000000002C
(1708581158.339299) can0 1E055001#000000000000002A
(1708581158.339445) can0 1E059001#42C8000000000000
(1708581158.339576) can0 1E05D001#42EE2E5E00000018
(1708581158.339772) can0 1E061001#3FBDA11000000000
(1708581158.339859) can0 1E065001#C18C460F00000000
(1708581158.339996) can0 1E069001#416257A800000018
(1708581158.340139) can0 1E06D001#4142315E00000000
(1708581158.340285) can0 1E071001#0000000000000000
(1708581158.340438) can0 1E075001#0000000000000000
(1708581158.340582) can0 1E079001#0000000000000011
(1708581158.340731) can0 1E07D001#000000000000002A
(1708581158.340877) can0 1E081001#0000000000000000
(1708581158.341026) can0 1E085001#0000000000000000
(1708581158.341173) can0 1E089001#000000000000002A
(1708581158.341326) can0 1E08D001#000000000000002A
(1708581158.341467) can0 1E091001#3F80000000000031
(1708581158.341611) can0 1E095001#3F80000000000032
(1708581158.341759) can0 1E099001#0000000000000000
(1708581158.341899) can0 1E09D001#42B507AE00000000
(1708581158.342043) can0 1E0A1001#417DB64500000000
(1708581158.342185) can0 1E0A5001#415940B300000000
(1708581158.342327) can0 1E0A9001#4020000000000000
(1708581158.342473) can0 1E0AD001#4035DEAC00000000
(1708581158.342620) can0 1E0B1001#0000000000000000
(1708581158.342771) can0 1E0B5001#0000000000000000
(1708581158.342919) can0 1E0B9001#0000000000000000
(1708581158.343075) can0 1E0BD001#0000000000000000
(1708581158.343219) can0 1E0C1001#0000000000000000
(1708581158.343365) can0 1E0C5001#0000000000000000
(1708581158.343516) can0 1E0C9001#0000000000000000
(1708581158.343684) can0 1E0CD001#0000000000000000
(1708581158.343814) can0 1E0D1001#0000000000000000
(1708581158.343964) can0 1E0D5001#0000000000000000
(1708581158.344105) can0 1E0D9001#4209999A00000000
(1708581158.344253) can0 1E0DD001#0000000000000000
(1708581158.344397) can0 1E0E1001#4191885400000000
(1708581158.344549) can0 1E0E5001#0000000000000000
(1708581158.344703) can0 1E0E9001#4009C89400000000
(1708581158.344843) can0 1E0ED001#0000000000000000
(1708581158.344990) can0 1E0F1001#0000000000000000
(1708581158.345145) can0 1E0F5001#0000000000000000
(1708581158.345287) can0 1E0F9001#0000000000000000
(1708581158.345438) can0 1E0FD001#0000000000000000
(1708581158.345583) can0 1E101001#0000000000000000
(1708581158.345732) can0 1E105001#0000000000000000
(1708581158.345878) can0 1E109001#0000000000000000
(1708581158.346026) can0 1E10D001#0000000000000000
(1708581158.346171) can0 1E111001#0000000000000000
(1708581158.346328) can0 1E115001#0000000000000000
(1708581158.346466) can0 1E119001#0000000000000000
(1708581158.346610) can0 1E11D001#0000000000000000
(1708581158.346764) can0 1E121001#0000000000000000
(1708581158.346912) can0 1E125001#0000000000000000
(1708581158.347062) can0 1E129001#0000000000000000
(1708581158.347210) can0 1E12D001#0000000000000000
(1708581158.347348) can0 1E131001#0000000000000000
(1708581158.347501) can0 1E135001#0000000000000000
(1708581158.347639) can0 1E139001#4974240000000000
(1708581158.347787) can0 1E13D001#0000000000000000
(1708581158.347955) can0 1E141001#0000000000000000
(1708581158.348083) can0 1E145001#0000000000000000
(1708581158.348231) can0 1E149001#0000000000000000
(1708581158.348377) can0 1E14D001#0000000000000000
(1708581158.348521) can0 1E151001#0000000000000000
(1708581158.348677) can0 1E155001#0000000000000000
(1708581158.348813) can0 1E159001#0000000000000000
(1708581158.348959) can0 1E15D001#40C0000000000000
(1708581158.349104) can0 1E161001#4190000000000000
(1708581158.349252) can0 1E165001#0000000000000000
(1708581158.349397) can0 1E169001#0000000000000000
(1708581158.349539) can0 1E16D001#0000000000000000
(1708581158.349697) can0 1E171001#0000000000000000
(1708581158.349843) can0 1E175001#0000000000000000
(1708581158.349982) can0 1E17D001#0000000000000000
(1708581158.350130) can0 1E181001#0000000000000000
(1708581158.350279) can0 1E185001#0000000000000000
(1708581158.350422) can0 1E189001#000000000000002A
(1708581158.350570) can0 1E18D001#0000000000000000
(1708581158.350716) can0 1E191001#0000000000000000
(1708581158.350861) can0 1E179001#0000000000000000
(1708581158.351010) can0 1E195001#0000000000000000
(1708581158.351156) can0 1E199001#0000000000000000
(1708581158.351302) can0 1E19D001#0000000000000000
(1708581158.351450) can0 1E1A1001#0000000000000000
(1708581158.351598) can0 1E1A5001#0000000000000000
(1708581158.351743) can0 1E1A9001#0000000000000000
(1708581158.351891) can0 1E1AD001#0000000000000000
(1708581158.352036) can0 1E1B1001#0000000000000000
(1708581158.352189) can0 1E1B5001#0000000000000000
(1708581158.352335) can0 1E1B9001#0000000000000000
(1708581158.352481) can0 1E1BD001#0000000000000000
(1708581158.352630) can0 1E1C1001#0000000000000000
(1708581158.352778) can0 1E1C5001#0000000000000000
(1708581158.352924) can0 1E1C9001#0000000000000000
(1708581158.353076) can0 1E1CD001#0000000000000000
(1708581158.353217) can0 1E021001#4316000000000000
(1708581158.353361) can0 1E025001#C040000000000000
(1708581158.353507) can0 1E029001#42C8000000000000
(1708581158.353653) can0 1E02D001#0000000000000000
(1708581158.353801) can0 1E031001#0000000000000026
(1708581158.353956) can0 1E001001#0000000000000044
(1708581158.354102) can0 1E005001#0000000000000000
(1708581158.354245) can0 1E009001#417582F600000000
(1708581158.354390) can0 1E00D001#40E5A7D600000000
(1708581158.354540) can0 1E011001#0000000000000000
(1708581158.354684) can0 1E015001#412F33BD00000000
(1708581158.354825) can0 1E019001#41F0000000000003
(1708581158.354967) can0 1E01D001#42D8AA7200000000
(1708581158.355120) can0 1E035001#0000000000000028
(1708581158.355254) can0 1E039001#41CA1C9500000000
(1708581158.355409) can0 1E03D001#0000000000000000
(1708581158.355551) can0 1E041001#C323CFBA00000000
(1708581158.355715) can0 1E045001#0000000000000000
(1708581158.355848) can0 1E049001#4170000000000000
(1708581158.356003) can0 1E04D001#000000000000002C
(1708581158.356147) can0 1E051001#000000000000002C
(1708581158.356302) can0 1E055001#000000000000002A
(1708581158.356438) can0 1E059001#42C8000000000000
(1708581158.356581) can0 1E05D001#42DBC68A00000018
(1708581158.356711) can0 1E061001#BFF5C35C00000000
(1708581158.356856) can0 1E065001#41DBBED600000000
(1708581158.356993) can0 1E069001#42427F3700000018
(1708581158.357131) can0 1E06D001#41425EDF00000000
(1708581158.357282) can0 1E071001#0000000000000000
(1708581158.357429) can0 1E075001#0000000000000000
(1708581158.357582) can0 1E079001#0000000000000011
(1708581158.357725) can0 1E07D001#000000000000002A
(1708581158.357871) can0 1E081001#0000000000000000
(1708581158.358024) can0 1E085001#0000000000000000
(1708581158.358168) can0 1E089001#000000000000002A
(1708581158.358314) can0 1E08D001#000000000000002A
(1708581158.358460) can0 1E091001#3F80000000000031
(1708581158.358605) can0 1E095001#3F80000000000032
(1708581158.358753) can0 1E099001#0000000000000000
(1708581158.358895) can0 1E09D001#42B507AE00000000
(1708581158.359040) can0 1E0A1001#417DB64500000000
(1708581158.359182) can0 1E0A5001#415940B300000000
(1708581158.359326) can0 1E0A9001#4020000000000000
(1708581158.359471) can0 1E0AD001#4035BFF400000000
(1708581158.359616) can0 1E0B1001#0000000000000000
(1708581158.359771) can0 1E0B5001#0000000000000000
(1708581158.359915) can0 1E0B9001#0000000000000000
(1708581158.360065) can0 1E0BD001#0000000000000000
(1708581158.360214) can0 1E0C1001#0000000000000000
(1708581158.360366) can0 1E0C5001#0000000000000000
(1708581158.360512) can0 1E0C9001#0000000000000000
(1708581158.360665) can0 1E0CD001#0000000000000000
(1708581158.360809) can0 1E0D1001#0000000000000000
(1708581158.360957) can0 1E0D5001#0000000000000000
(1708581158.361108) can0 1E0D9001#4190397C00000000
(1708581158.361254) can0 1E0DD001#0000000000000000
(1708581158.361403) can0 1E0E1001#411F9DD100000000
(1708581158.361551) can0 1E0E5001#0000000000000000
(1708581158.361697) can0 1E0E9001#3F6B422000000000
(1708581158.361852) can0 1E0ED001#0000000000000000
(1708581158.362001) can0 1E0F5001#0000000000000000
(1708581158.362147) can0 1E0F9001#0000000000000000
(1708581158.362305) can0 1E0FD001#0000000000000000
(1708581158.362446) can0 1E101001#0000000000000000
(1708581158.362586) can0 1E105001#0000000000000000
(1708581158.362748) can0 1E0F1001#0000000000000000
(1708581158.362880) can0 1E109001#0000000000000000
(1708581158.363030) can0 1E10D001#0000000000000000
(1708581158.363172) can0 1E111001#0000000000000000
(1708581158.363327) can0 1E115001#0000000000000000
(1708581158.363482) can0 1E119001#0000000000000000
(1708581158.363622) can0 1E11D001#0000000000000000
(1708581158.363782) can0 1E121001#0000000000000000
(1708581158.363945) can0 1E125001#0000000000000000
(1708581158.364055) can0 1E129001#0000000000000000
(1708581158.364219) can0 1E12D001#0000000000000000
(1708581158.364350) can0 1E131001#0000000000000000
(1708581158.364496) can0 1E135001#0000000000000000
(1708581158.364641) can0 1E139001#4974240000000000
(1708581158.364789) can0 1E13D001#0000000000000000
(1708581158.364936) can0 1E141001#0000000000000000
(1708581158.365081) can0 1E145001#0000000000000000
(1708581158.365220) can0 1E149001#0000000000000000
(1708581158.365370) can0 1E14D001#0000000000000000
(1708581158.365513) can0 1E151001#0000000000000000
(1708581158.365663) can0 1E155001#0000000000000000
(1708581158.365807) can0 1E159001#0000000000000000
(1708581158.365957) can0 1E15D001#40C0000000000000
(1708581158.366118) can0 1E161001#4190000000000000
(1708581158.366249) can0 1E165001#0000000000000000
(1708581158.366388) can0 1E169001#0000000000000000
(1708581158.366539) can0 1E16D001#0000000000000000
(1708581158.366684) can0 1E171001#0000000000000000
(1708581158.366833) can0 1E175001#0000000000000000
(1708581158.366984) can0 1E17D001#0000000000000000
(1708581158.367129) can0 1E181001#0000000000000000
(1708581158.367277) can0 1E185001#0000000000000000
(1708581158.367430) can0 1E189001#000000000000002A
(1708581158.367567) can0 1E18D001#0000000000000000
(1708581158.367717) can0 1E191001#0000000000000000
(1708581158.367862) can0 1E179001#0000000000000000
(1708581158.368007) can0 1E195001#0000000000000000
(1708581158.368156) can0 1E199001#0000000000000000
(1708581158.368301) can0 1E19D001#0000000000000000
(1708581158.368451) can0 1E1A1001#0000000000000000
(1708581158.368599) can0 1E1A5001#0000000000000000
(1708581158.368743) can0 1E1A9001#0000000000000000
(1708581158.368888) can0 1E1AD001#0000000000000000
(1708581158.369041) can0 1E1B1001#0000000000000000
(1708581158.369188) can0 1E1B5001#0000000000000000
(1708581158.369335) can0 1E1B9001#0000000000000000
(1708581158.369485) can0 1E1BD001#0000000000000000
(1708581158.369629) can0 1E1C1001#0000000000000000
(1708581158.369782) can0 1E1C5001#0000000000000000
(1708581158.369923) can0 1E1C9001#0000000000000000
(1708581158.370074) can0 1E1CD001#0000000000000000
(1708581158.370211) can0 1E021001#43104E9400000000
(1708581158.370362) can0 1E025001#C02833D800000000
(1708581158.370501) can0 1E029001#42C8000000000000
(1708581158.370667) can0 1E02D001#0000000000000000
(1708581158.370794) can0 1E031001#0000000000000026
(1708581158.370958) can0 1E001001#0000000000000056
(1708581158.371105) can0 1E005001#0000000000000000
(1708581158.371244) can0 1E009001#40CAACDF00000000
(1708581158.371392) can0 1E00D001#402C082400000000
(1708581158.371538) can0 1E011001#0000000000000000
(1708581158.371735) can0 1E015001#4141A83E00000000
(1708581158.371839) can0 1E019001#41F0000000000003
(1708581158.371979) can0 1E01D001#42D56D9100000000
(1708581158.372132) can0 1E035001#0000000000000028
(1708581158.372265) can0 1E039001#412C082400000000
(1708581158.372416) can0 1E03D001#0000000000000000
(1708581158.372555) can0 1E041001#C2AAD12E00000000
(1708581158.372710) can0 1E045001#0000000000000000
(1708581158.372845) can0 1E049001#4170000000000000
(1708581158.372994) can0 1E04D001#000000000000002C
(1708581158.373138) can0 1E051001#000000000000002C
(1708581158.373290) can0 1E055001#000000000000002A
(1708581158.373425) can0 1E059001#42A90BB800000000
(1708581158.373570) can0 1E05D001#42D10AD800000018
(1708581158.373709) can0 1E061001#C07791FB00000000
(1708581158.373846) can0 1E065001#4227668600000000
(1708581158.373989) can0 1E069001#426C92F800000018
(1708581158.374131) can0 1E06D001#41400E5600000000
(1708581158.374278) can0 1E071001#0000000000000000
(1708581158.374431) can0 1E075001#0000000000000000
(1708581158.374579) can0 1E079001#0000000000000011
(1708581158.374723) can0 1E07D001#000000000000002A
(1708581158.374871) can0 1E081001#0000000000000000
(1708581158.375019) can0 1E085001#0000000000000000
(1708581158.375166) can0 1E089001#000000000000002A
(1708581158.375319) can0 1E08D001#000000000000002A
(1708581158.375460) can0 1E091001#3F80000000000031
(1708581158.375605) can0 1E095001#3F80000000000032
(1708581158.375756) can0 1E099001#0000000000000000
(1708581158.375891) can0 1E09D001#42B4E6D300000000
(1708581158.376036) can0 1E0A1001#417DB64500000000
(1708581158.376176) can0 1E0A5001#415944FD00000000
(1708581158.376324) can0 1E0A9001#4020000000000000
(1708581158.376465) can0 1E0AD001#4035DFC400000000
(1708581158.376614) can0 1E0B1001#0000000000000000
(1708581158.376764) can0 1E0B5001#0000000000000000
(1708581158.376915) can0 1E0B9001#0000000000000000
(1708581158.377060) can0 1E0BD001#0000000000000000
(1708581158.377209) can0 1E0C1001#0000000000000000
(1708581158.377361) can0 1E0C5001#0000000000000000
(1708581158.377506) can0 1E0C9001#0000000000000000
(1708581158.377657) can0 1E0CD001#0000000000000000
(1708581158.377803) can0 1E0D1001#0000000000000000
(1708581158.377956) can0 1E0D5001#0000000000000000
(1708581158.378100) can0 1E0D9001#410BCBA300000000
(1708581158.378248) can0 1E0DD001#0000000000000000
(1708581158.378400) can0 1E0E1001#40AA809200000000
(1708581158.378544) can0 1E0E5001#0000000000000000
(1708581158.378694) can0 1E0E9001#3EB163E000000000
(1708581158.378846) can0 1E0ED001#0000000000000000
(1708581158.378994) can0 1E0F5001#0000000000000000
(1708581158.379145) can0 1E0F9001#0000000000000000
(1708581158.379299) can0 1E0FD001#0000000000000000
(1708581158.379438) can0 1E101001#0000000000000000
(1708581158.379592) can0 1E105001#0000000000000000
(1708581158.379784) can0 1E0F1001#0000000000000000
(1708581158.379899) can0 1E109001#0000000000000000
(1708581158.380030) can0 1E10D001#0000000000000000
(1708581158.380169) can0 1E111001#0000000000000000
(1708581158.380322) can0 1E115001#0000000000000000
(1708581158.380457) can0 1E119001#0000000000000000
(1708581158.380615) can0 1E11D001#0000000000000000
(1708581158.380774) can0 1E121001#0000000000000000
(1708581158.380924) can0 1E125001#0000000000000000
(1708581158.381067) can0 1E129001#0000000000000000
(1708581158.381219) can0 1E12D001#0000000000000000
(1708581158.381346) can0 1E131001#0000000000000000
(1708581158.381494) can0 1E135001#0000000000000000
(1708581158.381633) can0 1E139001#4974240000000000
(1708581158.381782) can0 1E13D001#0000000000000000
(1708581158.381939) can0 1E141001#0000000000000000
(1708581158.382139) can0 1E145001#0000000000000000
(1708581158.382226) can0 1E149001#0000000000000000
(1708581158.382373) can0 1E14D001#0000000000000000
(1708581158.382515) can0 1E151001#0000000000000000
(1708581158.382666) can0 1E155001#0000000000000000
(1708581158.382803) can0 1E159001#0000000000000000
(1708581158.382949) can0 1E15D001#40C0000000000000
(1708581158.383096) can0 1E161001#4190000000000000
(1708581158.383240) can0 1E165001#0000000000000000
(1708581158.383386) can0 1E169001#0000000000000000
(1708581158.383530) can0 1E16D001#0000000000000000
(1708581158.383721) can0 1E171001#0000000000000000
(1708581158.383835) can0 1E175001#0000000000000000
(1708581158.383975) can0 1E17D001#0000000000000000
(1708581158.384125) can0 1E181001#0000000000000000
(1708581158.384270) can0 1E185001#0000000000000000
(1708581158.384417) can0 1E189001#000000000000002A
(1708581158.384561) can0 1E18D001#0000000000000000
(1708581158.384708) can0 1E191001#0000000000000000
(1708581158.384856) can0 1E179001#0000000000000000
(1708581158.385007) can0 1E195001#0000000000000000
(1708581158.385152) can0 1E199001#0000000000000000
(1708581158.385306) can0 1E19D001#0000000000000000
(1708581158.385444) can0 1E1A1001#0000000000000000
(1708581158.385590) can0 1E1A5001#0000000000000000
(1708581158.385739) can0 1E1A9001#0000000000000000
(1708581158.385881) can0 1E1AD001#0000000000000000
(1708581158.386033) can0 1E1B1001#0000000000000000
(1708581158.386181) can0 1E1B5001#0000000000000000
(1708581158.386330) can0 1E1B9001#0000000000000000
(1708581158.386474) can0 1E1BD001#0000000000000000
(1708581158.386622) can0 1E1C1001#0000000000000000
(1708581158.386770) can0 1E1C5001#0000000000000000
(1708581158.386918) can0 1E1C9001#0000000000000000
(1708581158.387065) can0 1E1CD001#0000000000000000
(1708581158.387208) can0 1E021001#42F5179600000000
(1708581158.387354) can0 1E025001#BFBCC5A500000000
(1708581158.387491) can0 1E029001#42C8000000000000
(1708581158.387643) can0 1E02D001#0000000000000000
(1708581158.387808) can0 1E031001#0000000000000026
(1708581158.387962) can0 1E001001#0000000000000066
(1708581158.388108) can0 1E005001#0000000000000000
(1708581158.388255) can0 1E009001#40A732D100000000
(1708581158.388399) can0 1E00D001#40089AE300000000
(1708581158.388557) can0 1E011001#0000000000000000
(1708581158.388685) can0 1E015001#4145235E00000000
(1708581158.388832) can0 1E019001#41F0000000000003
(1708581158.388968) can0 1E01D001#42D3FFAD00000000
(1708581158.389109) can0 1E035001#0000000000000028
(1708581158.389257) can0 1E039001#41081AD400000000
(1708581158.389403) can0 1E03D001#0000000000000000
(1708581158.389552) can0 1E041001#C1E7CE9400000000
(1708581158.389699) can0 1E045001#0000000000000000
(1708581158.389846) can0 1E049001#4170000000000000
(1708581158.389993) can0 1E04D001#000000000000002C
(1708581158.390140) can0 1E051001#000000000000002C
(1708581158.390290) can0 1E055001#000000000000002A
(1708581158.390427) can0 1E059001#42A3F31500000000
(1708581158.390571) can0 1E05D001#42CBD51E00000018
(1708581158.390709) can0 1E061001#C09A1E4600000000
(1708581158.390850) can0 1E065001#42405DFF00000000
(1708581158.390993) can0 1E069001#4282B52F00000018
(1708581158.391133) can0 1E06D001#4142AA6000000000
(1708581158.391283) can0 1E071001#0000000000000000
(1708581158.391429) can0 1E075001#0000000000000000
(1708581158.391579) can0 1E079001#0000000000000011
(1708581158.391733) can0 1E07D001#000000000000002A
(1708581158.391875) can0 1E081001#0000000000000000
(1708581158.392024) can0 1E085001#0000000000000000
(1708581158.392170) can0 1E089001#000000000000002A
(1708581158.392316) can0 1E08D001#000000000000002A
(1708581158.392460) can0 1E091001#3F80000000000031
(1708581158.392609) can0 1E095001#3F80000000000032
(1708581158.392753) can0 1E099001#0000000000000000
(1708581158.392896) can0 1E09D001#42B48D3400000000
(1708581158.393036) can0 1E0A1001#417DB64500000000
(1708581158.393182) can0 1E0A5001#415951E200000000
(1708581158.393322) can0 1E0A9001#4020000000000000
(1708581158.393470) can0 1E0AD001#40380C9F00000000
(1708581158.393617) can0 1E0B1001#0000000000000000
(1708581158.393765) can0 1E0B5001#0000000000000000
(1708581158.393915) can0 1E0B9001#0000000000000000
(1708581158.394069) can0 1E0BD001#0000000000000000
(1708581158.394215) can0 1E0C1001#0000000000000000
(1708581158.394364) can0 1E0C5001#0000000000000000
(1708581158.394515) can0 1E0C9001#0000000000000000
(1708581158.394661) can0 1E0CD001#0000000000000000
(1708581158.394814) can0 1E0D1001#0000000000000000
(1708581158.394965) can0 1E0D5001#0000000000000000
(1708581158.395111) can0 1E0D9001#4106D73900000000
(1708581158.395259) can0 1E0DD001#0000000000000000
(1708581158.395403) can0 1E0E1001#40A57FF400000000
(1708581158.395557) can0 1E0E5001#0000000000000000
(1708581158.395712) can0 1E0E9001#BC67D80000000000
(1708581158.395851) can0 1E0ED001#0000000000000000
(1708581158.395991) can0 1E0F5001#0000000000000000
(1708581158.396148) can0 1E0F9001#0000000000000000
(1708581158.396287) can0 1E0FD001#0000000000000000
(1708581158.396436) can0 1E101001#0000000000000000
(1708581158.396584) can0 1E105001#0000000000000000
(1708581158.396732) can0 1E0F1001#0000000000000000
(1708581158.396894) can0 1E109001#0000000000000000
(1708581158.397026) can0 1E10D001#0000000000000000
(1708581158.397193) can0 1E111001#0000000000000000
(1708581158.397320) can0 1E115001#0000000000000000
(1708581158.397469) can0 1E119001#0000000000000000
(1708581158.397624) can0 1E11D001#0000000000000000
(1708581158.397764) can0 1E121001#0000000000000000
(1708581158.397916) can0 1E125001#0000000000000000
(1708581158.398122) can0 1E129001#0000000000000000
(1708581158.398189) can0 1E12D001#0000000000000000
(1708581158.398354) can0 1E131001#0000000000000000
(1708581158.398492) can0 1E135001#0000000000000000
(1708581158.398632) can0 1E139001#4974240000000000
(1708581158.398778) can0 1E13D001#0000000000000000
(1708581158.398924) can0 1E141001#0000000000000000
(1708581158.399081) can0 1E145001#0000000000000000
(1708581158.399220) can0 1E149001#0000000000000000
(1708581158.399364) can0 1E14D001#0000000000000000
(1708581158.399514) can0 1E151001#0000000000000000
(1708581158.399656) can0 1E155001#0000000000000000
(1708581158.399806) can0 1E159001#0000000000000000
(1708581158.399947) can0 1E15D001#40C0000000000000
(1708581158.400097) can0 1E161001#4190000000000000
(1708581158.400245) can0 1E165001#0000000000000000
(1708581158.400387) can0 1E169001#0000000000000000
(1708581158.400533) can0 1E16D001#0000000000000000
(1708581158.400689) can0 1E171001#0000000000000000
(1708581158.400829) can0 1E175001#0000000000000000
(1708581158.400977) can0 1E17D001#0000000000000000
(1708581158.401128) can0 1E181001#0000000000000000
(1708581158.401273) can0 1E185001#0000000000000000
(1708581158.401424) can0 1E189001#000000000000002A
(1708581158.401562) can0 1E18D001#0000000000000000
(1708581158.401711) can0 1E191001#0000000000000000
(1708581158.401859) can0 1E179001#0000000000000000
(1708581158.402004) can0 1E195001#0000000000000000
(1708581158.402151) can0 1E199001#0000000000000000
(1708581158.402305) can0 1E19D001#0000000000000000
(1708581158.402445) can0 1E1A1001#0000000000000000
(1708581158.402596) can0 1E1A5001#0000000000000000
(1708581158.402745) can0 1E1A9001#0000000000000000
(1708581158.402887) can0 1E1AD001#0000000000000000
(1708581158.403037) can0 1E1B1001#0000000000000000
(1708581158.403186) can0 1E1B5001#0000000000000000
(1708581158.403334) can0 1E1B9001#0000000000000000
(1708581158.403480) can0 1E1BD001#0000000000000000
(1708581158.403627) can0 1E1C1001#0000000000000000
(1708581158.403783) can0 1E1C5001#0000000000000000
(1708581158.403920) can0 1E1C9001#0000000000000000
(1708581158.404071) can0 1E1CD001#0000000000000000
(1708581158.404205) can0 1E021001#42EDD0AB00000000
(1708581158.404347) can0 1E025001#BFA1582E00000000
(1708581158.404495) can0 1E029001#42C8000000000000
(1708581158.404642) can0 1E02D001#0000000000000000
(1708581158.404790) can0 1E031001#0000000000000026
(1708581158.404965) can0 1E001001#0000000000000078
(1708581158.405108) can0 1E005001#0000000000000000
(1708581158.405258) can0 1E009001#40A4004E00000000
(1708581158.405407) can0 1E00D001#4005670B00000000
(1708581158.405551) can0 1E011001#0000000000000000
(1708581158.405704) can0 1E015001#41460FB500000000
(1708581158.405838) can0 1E019001#41F0000000000003
(1708581158.405976) can0 1E035001#0000000000000028
(1708581158.406125) can0 1E039001#4105670B00000000
(1708581158.406270) can0 1E03D001#0000000000000000
(1708581158.406407) can0 1E041001#C16B982200000000
(1708581158.406556) can0 1E045001#0000000000000000
(1708581158.406702) can0 1E049001#4170000000000000
(1708581158.406842) can0 1E01D001#42D332BE00000000
(1708581158.406994) can0 1E04D001#000000000000002C
(1708581158.407137) can0 1E051001#000000000000002C
(1708581158.407288) can0 1E055001#000000000000002A
(1708581158.407424) can0 1E059001#42A243C900000000
(1708581158.407566) can0 1E05D001#42C87D7100000018
(1708581158.407717) can0 1E061001#C0AE1EFF00000000
(1708581158.407852) can0 1E065001#424EC1A600000000
(1708581158.407993) can0 1E069001#4287D8C700000018
(1708581158.408135) can0 1E06D001#4143086100000000
(1708581158.408283) can0 1E071001#0000000000000000
(1708581158.408438) can0 1E075001#0000000000000000
(1708581158.408578) can0 1E079001#0000000000000011
(1708581158.408725) can0 1E07D001#000000000000002A
(1708581158.408876) can0 1E081001#0000000000000000
(1708581158.409021) can0 1E085001#0000000000000000
(1708581158.409171) can0 1E089001#000000000000002A
(1708581158.409316) can0 1E08D001#000000000000002A
(1708581158.409462) can0 1E091001#3F80000000000031
(1708581158.409610) can0 1E095001#3F80000000000032
(1708581158.409755) can0 1E099001#0000000000000000
(1708581158.409896) can0 1E09D001#42B4532A00000000
(1708581158.410040) can0 1E0A1001#417DB64500000000
(1708581158.410179) can0 1E0A5001#4159584300000000
(1708581158.410322) can0 1E0A9001#4020000000000000
(1708581158.410468) can0 1E0AD001#4035089F00000000
(1708581158.410613) can0 1E0B1001#0000000000000000
(1708581158.410766) can0 1E0B5001#0000000000000000
(1708581158.410912) can0 1E0B9001#0000000000000000
(1708581158.411062) can0 1E0BD001#0000000000000000
(1708581158.411211) can0 1E0C1001#0000000000000000
(1708581158.411360) can0 1E0C5001#0000000000000000
(1708581158.411511) can0 1E0C9001#0000000000000000
(1708581158.411692) can0 1E0CD001#0000000000000000
(1708581158.411812) can0 1E0D1001#0000000000000000
(1708581158.411964) can0 1E0D5001#0000000000000000
(1708581158.412105) can0 1E0D9001#4104980700000000
(1708581158.412254) can0 1E0DD001#0000000000000000
(1708581158.412400) can0 1E0E1001#40A310E300000000
(1708581158.412546) can0 1E0E5001#0000000000000000
(1708581158.412698) can0 1E0E9001#BE498A0000000000
(1708581158.412843) can0 1E0ED001#0000000000000000
(1708581158.412995) can0 1E0F5001#0000000000000000
(1708581158.413148) can0 1E0F9001#0000000000000000
(1708581158.413289) can0 1E0FD001#0000000000000000
(1708581158.413433) can0 1E101001#0000000000000000
(1708581158.413577) can0 1E105001#0000000000000000
(1708581158.413730) can0 1E109001#0000000000000000
(1708581158.413887) can0 1E0F1001#0000000000000000
(1708581158.414031) can0 1E10D001#0000000000000000
(1708581158.414184) can0 1E111001#0000000000000000
(1708581158.414324) can0 1E115001#0000000000000000
(1708581158.414467) can0 1E119001#0000000000000000
(1708581158.414621) can0 1E11D001#0000000000000000
(1708581158.414763) can0 1E121001#0000000000000000
(1708581158.414915) can0 1E125001#0000000000000000
(1708581158.415055) can0 1E129001#0000000000000000
(1708581158.415208) can0 1E12D001#0000000000000000
(1708581158.415344) can0 1E131001#0000000000000000
(1708581158.415492) can0 1E135001#0000000000000000
(1708581158.415628) can0 1E139001#4974240000000000
(1708581158.415774) can0 1E13D001#0000000000000000
(1708581158.415925) can0 1E141001#0000000000000000
(1708581158.416068) can0 1E145001#0000000000000000
(1708581158.416218) can0 1E149001#0000000000000000
(1708581158.416364) can0 1E14D001#0000000000000000
(1708581158.416511) can0 1E151001#0000000000000000
(1708581158.416659) can0 1E155001#0000000000000000
(1708581158.416808) can0 1E159001#0000000000000000
(1708581158.416946) can0 1E15D001#40C0000000000000
(1708581158.417090) can0 1E161001#4190000000000000
(1708581158.417241) can0 1E165001#0000000000000000
(1708581158.417384) can0 1E169001#0000000000000000
(1708581158.417533) can0 1E16D001#0000000000000000
(1708581158.417680) can0 1E171001#0000000000000000
(1708581158.417834) can0 1E175001#0000000000000000
(1708581158.417975) can0 1E17D001#0000000000000000
(1708581158.418122) can0 1E181001#0000000000000000
(1708581158.418270) can0 1E185001#0000000000000000
(1708581158.418416) can0 1E189001#000000000000002A
(1708581158.418564) can0 1E18D001#0000000000000000
(1708581158.418709) can0 1E191001#0000000000000000
(1708581158.418858) can0 1E179001#0000000000000000
(1708581158.419005) can0 1E195001#0000000000000000
(1708581158.419152) can0 1E199001#0000000000000000
(1708581158.419294) can0 1E19D001#0000000000000000
(1708581158.419445) can0 1E1A1001#0000000000000000
(1708581158.419588) can0 1E1A5001#0000000000000000
(1708581158.419744) can0 1E1A9001#0000000000000000
(1708581158.419886) can0 1E1AD001#0000000000000000
(1708581158.420032) can0 1E1B1001#0000000000000000
(1708581158.420181) can0 1E1B5001#0000000000000000
(1708581158.420330) can0 1E1B9001#0000000000000000
(1708581158.420475) can0 1E1BD001#0000000000000000
(1708581158.420623) can0 1E1C1001#0000000000000000
(1708581158.420770) can0 1E1C5001#0000000000000000
(1708581158.420919) can0 1E1C9001#0000000000000000
(1708581158.421074) can0 1E1CD001#0000000000000000
(1708581158.421209) can0 1E021001#42EC25AB00000000
(1708581158.421354) can0 1E025001#BF9A3A5000000000
(1708581158.421496) can0 1E029001#42C8000000000000
(1708581158.421644) can0 1E02D001#0000000000000000
(1708581158.421794) can0 1E031001#0000000000000026
(1708581158.421969) can0 1E001001#0000000000000088
(1708581158.422110) can0 1E005001#0000000000000000
(1708581158.422246) can0 1E009001#40A1FBE800000000
(1708581158.422393) can0 1E00D001#4003977200000000
(1708581158.422538) can0 1E011001#0000000000000000
(1708581158.422676) can0 1E015001#414694DA00000000
(1708581158.422821) can0 1E019001#41F0000000000003
(1708581158.422964) can0 1E01D001#42D2C92200000000
(1708581158.423109) can0 1E035001#0000000000000028
(1708581158.423252) can0 1E039001#410374B100000000
(1708581158.423401) can0 1E03D001#0000000000000000
(1708581158.423555) can0 1E041001#0000000000000000
(1708581158.423705) can0 1E045001#0000000000000000
(1708581158.423842) can0 1E049001#4170000000000000
(1708581158.423993) can0 1E04D001#000000000000002C
(1708581158.424137) can0 1E051001#000000000000002C
(1708581158.424285) can0 1E055001#000000000000002A
(1708581158.424424) can0 1E059001#42A1425800000000
(1708581158.424567) can0 1E05D001#42C6C2B200000017
(1708581158.424706) can0 1E061001#C0B7A5AA00000000
(1708581158.424849) can0 1E065001#42562B0E00000000
(1708581158.424987) can0 1E069001#428BBD6500000018
(1708581158.425129) can0 1E06D001#414306B700000000
(1708581158.425277) can0 1E071001#0000000000000000
(1708581158.425435) can0 1E075001#0000000000000000
(1708581158.425572) can0 1E079001#0000000000000011
(1708581158.425719) can0 1E07D001#000000000000002A
(1708581158.425870) can0 1E081001#0000000000000000
(1708581158.426018) can0 1E085001#0000000000000000
(1708581158.426165) can0 1E089001#000000000000002A
(1708581158.426310) can0 1E08D001#000000000000002A
(1708581158.426457) can0 1E091001#3F80000000000031
(1708581158.426602) can0 1E095001#3F80000000000032
(1708581158.426749) can0 1E099001#0000000000000000
(1708581158.426890) can0 1E09D001#42B434CD00000000
(1708581158.427032) can0 1E0A1001#417DB64500000000
(1708581158.427177) can0 1E0A5001#41595C9100000000
(1708581158.427328) can0 1E0A9001#4020000000000000
(1708581158.427470) can0 1E0AD001#403517C700000000
(1708581158.427615) can0 1E0B1001#0000000000000000
(1708581158.427772) can0 1E0B5001#0000000000000000
(1708581158.427913) can0 1E0B9001#0000000000000000
(1708581158.428062) can0 1E0BD001#0000000000000000
(1708581158.428210) can0 1E0C1001#0000000000000000
(1708581158.428361) can0 1E0C5001#0000000000000000
(1708581158.428518) can0 1E0C9001#0000000000000000
(1708581158.428672) can0 1E0CD001#0000000000000000
(1708581158.428809) can0 1E0D1001#0000000000000000
(1708581158.428959) can0 1E0D5001#0000000000000000
(1708581158.429107) can0 1E0D9001#410300D600000000
(1708581158.429251) can0 1E0DD001#0000000000000000
(1708581158.429395) can0 1E0E1001#40A16D7F00000000
(1708581158.429550) can0 1E0E5001#0000000000000000
(1708581158.429694) can0 1E0E9001#BEA33CC000000000
(1708581158.429842) can0 1E0ED001#0000000000000000
(1708581158.429985) can0 1E0F5001#0000000000000000
(1708581158.430135) can0 1E0F9001#0000000000000000
(1708581158.430288) can0 1E0FD001#0000000000000000
(1708581158.430429) can0 1E101001#0000000000000000
(1708581158.430572) can0 1E105001#0000000000000000
(1708581158.430728) can0 1E0F1001#0000000000000000
(1708581158.430871) can0 1E109001#0000000000000000
(1708581158.431024) can0 1E10D001#0000000000000000
(1708581158.431187) can0 1E111001#0000000000000000
(1708581158.431333) can0 1E115001#0000000000000000
(1708581158.431472) can0 1E119001#0000000000000000
(1708581158.431607) can0 1E11D001#0000000000000000
(1708581158.431773) can0 1E121001#0000000000000000
(1708581158.431905) can0 1E125001#0000000000000000
(1708581158.432046) can0 1E129001#0000000000000000
(1708581158.432197) can0 1E12D001#0000000000000000
(1708581158.432353) can0 1E131001#0000000000000000
(1708581158.432484) can0 1E135001#0000000000000000
(1708581158.432628) can0 1E139001#4974240000000000
(1708581158.432767) can0 1E13D001#0000000000000000
(1708581158.432919) can0 1E141001#0000000000000000
(1708581158.433063) can0 1E145001#0000000000000000
(1708581158.433210) can0 1E149001#0000000000000000
(1708581158.433357) can0 1E14D001#0000000000000000
(1708581158.433505) can0 1E151001#0000000000000000
(1708581158.433651) can0 1E155001#0000000000000000
(1708581158.433796) can0 1E159001#0000000000000000
(1708581158.433941) can0 1E15D001#40C0000000000000
(1708581158.434084) can0 1E161001#4190000000000000
(1708581158.434237) can0 1E165001#0000000000000000
(1708581158.434378) can0 1E169001#0000000000000000
(1708581158.434526) can0 1E16D001#0000000000000000
(1708581158.434674) can0 1E171001#0000000000000000
(1708581158.434823) can0 1E175001#0000000000000000
(1708581158.434969) can0 1E179001#0000000000000000
(1708581158.435116) can0 1E17D001#0000000000000000
(1708581158.435264) can0 1E181001#0000000000000000
(1708581158.435416) can0 1E185001#0000000000000000
(1708581158.435557) can0 1E189001#000000000000002A
(1708581158.435718) can0 1E18D001#0000000000000000
(1708581158.435852) can0 1E191001#0000000000000000
(1708581158.435995) can0 1E195001#0000000000000000
(1708581158.436149) can0 1E199001#0000000000000000
(1708581158.436292) can0 1E19D001#0000000000000000
(1708581158.436442) can0 1E1A1001#0000000000000000
(1708581158.436587) can0 1E1A5001#0000000000000000
(1708581158.436745) can0 1E1A9001#0000000000000000
(1708581158.436879) can0 1E1AD001#0000000000000000
(1708581158.437028) can0 1E1B1001#0000000000000000
(1708581158.437177) can0 1E1B5001#0000000000000000
(1708581158.437332) can0 1E1B9001#0000000000000000
(1708581158.437472) can0 1E1BD001#0000000000000000
(1708581158.437619) can0 1E1C1001#0000000000000000
(1708581158.437771) can0 1E1C5001#0000000000000000
(1708581158.437916) can0 1E1C9001#0000000000000000
(1708581158.438062) can0 1E1CD001#0000000000000000
(1708581158.438199) can0 1E021001#42EB343600000000
(1708581158.438343) can0 1E025001#BF96341800000000
(1708581158.438485) can0 1E029001#42C8000000000000
(1708581158.438637) can0 1E02D001#0000000000000000
(1708581158.438783) can0 1E031001#0000000000000026
(1708581158.438964) can0 1E001001#000000000000009A
(1708581158.439103) can0 1E005001#0000000000000020
(1708581158.439247) can0 1E009001#40A0DEDE00000000
(1708581158.439400) can0 1E00D001#40025EF000000000
(1708581158.439544) can0 1E011001#0000000000000000
(1708581158.439732) can0 1E015001#4146EEA500000000
(1708581158.439828) can0 1E019001#41F0000000000003
(1708581158.439970) can0 1E01D001#42D289CB00000000
(1708581158.440118) can0 1E035001#0000000000000028
(1708581158.440252) can0 1E039001#41025EF000000000
(1708581158.440405) can0 1E03D001#0000000000000000
(1708581158.440551) can0 1E041001#0000000000000000
(1708581158.440704) can0 1E045001#0000000000000000
(1708581158.440846) can0 1E049001#4170000000000000
(1708581158.440994) can0 1E04D001#000000000000002C
(1708581158.441140) can0 1E051001#000000000000002C
(1708581158.441290) can0 1E055001#000000000000002A
(1708581158.441427) can0 1E059001#42A0996200000000
(1708581158.441573) can0 1E05D001#42C59F8500000017
(1708581158.441714) can0 1E061001#C0BF770400000000
(1708581158.441852) can0 1E065001#425B25D500000000
(1708581158.441995) can0 1E069001#428DD7D300000018
(1708581158.442133) can0 1E06D001#41431D0D00000000
(1708581158.442284) can0 1E071001#0000000000000000
(1708581158.442432) can0 1E075001#0000000000000000
(1708581158.442579) can0 1E079001#0000000000000011
(1708581158.442726) can0 1E07D001#000000000000002A
(1708581158.442874) can0 1E081001#0000000000000000
(1708581158.443022) can0 1E085001#0000000000000000
(1708581158.443170) can0 1E089001#000000000000002A
(1708581158.443317) can0 1E08D001#000000000000002A
(1708581158.443461) can0 1E091001#3F80000000000031
(1708581158.443611) can0 1E095001#3F80000000000032
(1708581158.443753) can0 1E099001#0000000000000000
(1708581158.443897) can0 1E09D001#42B4211C00000000
(1708581158.444037) can0 1E0A1001#417DB64500000000
(1708581158.444180) can0 1E0A5001#41595ECB00000000
(1708581158.444328) can0 1E0A9001#4020000000000000
(1708581158.444464) can0 1E0AD001#40378B8600000000
(1708581158.444615) can0 1E0B1001#0000000000000000
(1708581158.444767) can0 1E0B5001#0000000000000000
(1708581158.444920) can0 1E0B9001#0000000000000000
(1708581158.445067) can0 1E0BD001#0000000000000000
(1708581158.445221) can0 1E0C1001#0000000000000000
(1708581158.445372) can0 1E0C5001#0000000000000000
(1708581158.445524) can0 1E0C9001#0000000000000000
(1708581158.445666) can0 1E0CD001#0000000000000000
(1708581158.445843) can0 1E0D1001#0000000000000000
(1708581158.445982) can0 1E0D5001#0000000000000000
(1708581158.446123) can0 1E0D9001#4102219500000000
(1708581158.446259) can0 1E0DD001#0000000000000000
(1708581158.446401) can0 1E0E1001#40A0890B00000000
(1708581158.446548) can0 1E0E5001#0000000000000000
(1708581158.446700) can0 1E0E9001#BEC3BEC000000000
(1708581158.446840) can0 1E0ED001#0000000000000000
(1708581158.446996) can0 1E0F5001#0000000000000000
(1708581158.447149) can0 1E0F9001#0000000000000000
(1708581158.447292) can0 1E0FD001#0000000000000000
(1708581158.447433) can0 1E101001#0000000000000000
(1708581158.447585) can0 1E105001#0000000000000000
(1708581158.447782) can0 1E0F1001#0000000000000000
(1708581158.447863) can0 1E109001#0000000000000000
(1708581158.448043) can0 1E10D001#0000000000000000
(1708581158.448172) can0 1E111001#0000000000000000
(1708581158.448325) can0 1E115001#0000000000000000
(1708581158.448470) can0 1E119001#0000000000000000
(1708581158.448612) can0 1E11D001#0000000000000000
(1708581158.448764) can0 1E121001#0000000000000000
(1708581158.448916) can0 1E125001#0000000000000000
(1708581158.449052) can0 1E129001#0000000000000000
(1708581158.449206) can0 1E12D001#0000000000000000
(1708581158.449340) can0 1E131001#0000000000000000
(1708581158.449488) can0 1E135001#0000000000000000
(1708581158.449627) can0 1E139001#4974240000000000
(1708581158.449772) can0 1E13D001#0000000000000000
(1708581158.449924) can0 1E141001#0000000000000000
(1708581158.450067) can0 1E145001#0000000000000000
(1708581158.450214) can0 1E149001#3F80000000000000
(1708581158.450361) can0 1E14D001#0000000000000000
(1708581158.450509) can0 1E151001#0000000000000000
(1708581158.450659) can0 1E155001#0000000000000000
(1708581158.450808) can0 1E159001#0000000000000000
(1708581158.450945) can0 1E15D001#40C0000000000000
(1708581158.451089) can0 1E161001#4190000000000000
(1708581158.451238) can0 1E165001#0000000000000000
(1708581158.451383) can0 1E169001#0000000000000000
(1708581158.451532) can0 1E16D001#0000000000000000
(1708581158.451715) can0 1E171001#0000000000000000
(1708581158.451835) can0 1E175001#0000000000000000
(1708581158.451974) can0 1E17D001#0000000000000000
(1708581158.452121) can0 1E181001#0000000000000000
(1708581158.452268) can0 1E185001#0000000000000000
(1708581158.452416) can0 1E189001#000000000000002A
(1708581158.452560) can0 1E18D001#0000000000000000
(1708581158.452709) can0 1E191001#0000000000000000
(1708581158.452857) can0 1E179001#0000000000000000
(1708581158.453003) can0 1E195001#0000000000000000
(1708581158.453151) can0 1E199001#0000000000000000
(1708581158.453292) can0 1E19D001#0000000000000000
(1708581158.453443) can0 1E1A1001#0000000000000000
(1708581158.453588) can0 1E1A5001#0000000000000000
(1708581158.453734) can0 1E1A9001#0000000000000000
(1708581158.453882) can0 1E1AD001#0000000000000000
(1708581158.454027) can0 1E1B1001#0000000000000000
(1708581158.454187) can0 1E1B5001#0000000000000000
(1708581158.454326) can0 1E1B9001#0000000000000000
(1708581158.454473) can0 1E1BD001#0000000000000000
(1708581158.454622) can0 1E1C1001#0000000000000000
(1708581158.454769) can0 1E1C5001#0000000000000000
(1708581158.454918) can0 1E1C9001#0000000000000000
(1708581158.455065) can0 1E1CD001#0000000000000000
(1708581158.455209) can0 1E021001#42EA917200000000
(1708581158.455355) can0 1E025001#BF937DA200000000
(1708581158.455496) can0 1E029001#42C8000000000000
(1708581158.455652) can0 1E02D001#0000000000000000
(1708581158.455788) can0 1E031001#0000000000000026
(1708581158.455974) can0 1E001001#00000000000000AA
(1708581158.456107) can0 1E005001#0000000000000020
(1708581158.456247) can0 1E009001#40A02BAD00000000
(1708581158.456391) can0 1E00D001#4001CD0400000000
(1708581158.456535) can0 1E011001#0000000000000000
(1708581158.456678) can0 1E015001#414718AF00000000
(1708581158.456818) can0 1E019001#41F0000000000003
(1708581158.456958) can0 1E01D001#42D25EF500000000
(1708581158.457108) can0 1E035001#0000000000000028
(1708581158.457248) can0 1E039001#4101C06300000000
(1708581158.457400) can0 1E03D001#0000000000000000
(1708581158.457546) can0 1E041001#0000000000000000
(1708581158.457698) can0 1E045001#0000000000000000
(1708581158.457841) can0 1E049001#4170000000000000
(1708581158.457990) can0 1E04D001#000000000000002C
(1708581158.458136) can0 1E051001#000000000000002C
(1708581158.458282) can0 1E055001#000000000000002A
(1708581158.458423) can0 1E059001#42A045DA00000000
(1708581158.458569) can0 1E05D001#42C50C7A00000017
(1708581158.458709) can0 1E061001#C0C2417000000000
(1708581158.458851) can0 1E065001#425D920D00000000
(1708581158.458991) can0 1E069001#428F26E900000018
(1708581158.459130) can0 1E06D001#4143303700000000
(1708581158.459281) can0 1E071001#0000000000000000
(1708581158.459427) can0 1E075001#0000000000000000
(1708581158.459578) can0 1E079001#0000000000000011
(1708581158.459725) can0 1E07D001#000000000000002A
(1708581158.459870) can0 1E081001#0000000000000000
(1708581158.460023) can0 1E085001#0000000000000000
(1708581158.460166) can0 1E089001#000000000000002A
(1708581158.460315) can0 1E08D001#000000000000002A
(1708581158.460459) can0 1E091001#3F80000000000031
(1708581158.460605) can0 1E095001#3F80000000000032
(1708581158.460753) can0 1E099001#0000000000000000
(1708581158.460895) can0 1E09D001#42B416C400000000
(1708581158.461037) can0 1E0A1001#417DB64500000000
(1708581158.461188) can0 1E0A5001#4159604800000000
(1708581158.461335) can0 1E0A9001#4020000000000000
(1708581158.461473) can0 1E0AD001#4034F6B000000000
(1708581158.461625) can0 1E0B1001#0000000000000000
(1708581158.461779) can0 1E0B5001#0000000000000000
(1708581158.461927) can0 1E0B9001#0000000000000000
(1708581158.462076) can0 1E0BD001#0000000000000000
(1708581158.462235) can0 1E0C1001#0000000000000000
(1708581158.462395) can0 1E0C5001#0000000000000000
(1708581158.462539) can0 1E0C9001#0000000000000000
(1708581158.462687) can0 1E0CD001#0000000000000000
(1708581158.462824) can0 1E0D1001#0000000000000000
(1708581158.462970) can0 1E0D5001#0000000000000000
(1708581158.463133) can0 1E0D9001#41019C5100000000
(1708581158.463274) can0 1E0DD001#0000000000000000
(1708581158.463427) can0 1E0E1001#40A10D5400000000
(1708581158.463578) can0 1E0E5001#0000000000000000
(1708581158.463728) can0 1E0E9001#BED7720000000000
(1708581158.463886) can0 1E0ED001#0000000000000000
(1708581158.463992) can0 1E0F1001#0000000000000000
(1708581158.464144) can0 1E0F5001#0000000000000000
(1708581158.464296) can0 1E0F9001#0000000000000000
(1708581158.464433) can0 1E0FD001#0000000000000000
(1708581158.464595) can0 1E101001#0000000000000000
(1708581158.464737) can0 1E105001#0000000000000000
(1708581158.464882) can0 1E109001#0000000000000000
(1708581158.465023) can0 1E10D001#0000000000000000
(1708581158.465175) can0 1E111001#0000000000000000
(1708581158.465321) can0 1E115001#0000000000000000
(1708581158.465468) can0 1E119001#0000000000000000
(1708581158.465617) can0 1E11D001#0000000000000000
(1708581158.465764) can0 1E121001#0000000000000000
(1708581158.465915) can0 1E125001#0000000000000000
(1708581158.466051) can0 1E129001#0000000000000000
(1708581158.466206) can0 1E12D001#0000000000000000
(1708581158.466340) can0 1E131001#0000000000000000
(1708581158.466486) can0 1E135001#0000000000000000
(1708581158.466628) can0 1E139001#4974240000000000
(1708581158.466772) can0 1E13D001#0000000000000000
(1708581158.466924) can0 1E141001#0000000000000000
(1708581158.467068) can0 1E145001#0000000000000000
(1708581158.467215) can0 1E149001#3F80000000000000
(1708581158.467361) can0 1E14D001#0000000000000000
(1708581158.467507) can0 1E151001#0000000000000000
(1708581158.467653) can0 1E155001#0000000000000000
(1708581158.467807) can0 1E159001#0000000000000000
(1708581158.467947) can0 1E15D001#40C0000000000000
(1708581158.468090) can0 1E161001#4190000000000000
(1708581158.468240) can0 1E165001#0000000000000000
(1708581158.468381) can0 1E169001#0000000000000000
(1708581158.468529) can0 1E16D001#0000000000000000
(1708581158.468678) can0 1E171001#0000000000000000
(1708581158.468829) can0 1E175001#0000000000000000
(1708581158.468974) can0 1E17D001#0000000000000000
(1708581158.469122) can0 1E181001#0000000000000000
(1708581158.469269) can0 1E185001#0000000000000000
(1708581158.469417) can0 1E189001#000000000000002A
(1708581158.469561) can0 1E18D001#0000000000000000
(1708581158.469709) can0 1E191001#0000000000000000
(1708581158.469856) can0 1E179001#0000000000000000
(1708581158.470005) can0 1E195001#0000000000000000
(1708581158.470149) can0 1E199001#0000000000000000
(1708581158.470305) can0 1E19D001#0000000000000000
(1708581158.470443) can0 1E1A1001#0000000000000000
(1708581158.470591) can0 1E1A5001#0000000000000000
(1708581158.470743) can0 1E1A9001#0000000000000000
(1708581158.470884) can0 1E1AD001#0000000000000000
(1708581158.471033) can0 1E1B1001#0000000000000000
(1708581158.471180) can0 1E1B5001#0000000000000000
(1708581158.471330) can0 1E1B9001#0000000000000000
(1708581158.471475) can0 1E1BD001#0000000000000000
(1708581158.471626) can0 1E1C1001#0000000000000000
(1708581158.471771) can0 1E1C5001#0000000000000000
(1708581158.471919) can0 1E1C9001#0000000000000000
(1708581158.472062) can0 1E1CD001#0000000000000000
(1708581158.472208) can0 1E021001#42EA457200000000
(1708581158.472350) can0 1E025001#BF92395E00000000
(1708581158.472491) can0 1E029001#42C8000000000000
(1708581158.472643) can0 1E02D001#0000000000000000
(1708581158.472792) can0 1E031001#0000000000000026
(1708581158.472970) can0 1E001001#00000000000000BC
(1708581158.473108) can0 1E005001#0000000000000020
(1708581158.473249) can0 1E009001#40A0F63500000000
(1708581158.473387) can0 1E00D001#40016C6500000000
(1708581158.473541) can0 1E011001#0000000000000000
(1708581158.473671) can0 1E015001#4147348F00000000
(1708581158.473824) can0 1E019001#41F0000000000003
(1708581158.473964) can0 1E01D001#42D24BFC00000000
(1708581158.474109) can0 1E035001#0000000000000028
(1708581158.474253) can0 1E039001#41016C6500000000
(1708581158.474400) can0 1E03D001#0000000000000000
(1708581158.474551) can0 1E041001#0000000000000000
(1708581158.474696) can0 1E045001#0000000000000000
(1708581158.474843) can0 1E049001#4170000000000000
(1708581158.474992) can0 1E04D001#000000000000002C
(1708581158.475138) can0 1E051001#000000000000002C
(1708581158.475286) can0 1E055001#000000000000002A
(1708581158.475431) can0 1E059001#42A0071000000000
(1708581158.475570) can0 1E05D001#42C4A06800000017
(1708581158.475737) can0 1E061001#C0C67A8700000000
(1708581158.475854) can0 1E065001#425F596C00000000
(1708581158.475992) can0 1E069001#428FE69300000018
(1708581158.476136) can0 1E06D001#4143200C00000000
(1708581158.476282) can0 1E071001#0000000000000000
(1708581158.476435) can0 1E075001#0000000000000000
(1708581158.476577) can0 1E079001#0000000000000011
(1708581158.476726) can0 1E07D001#000000000000002A
(1708581158.476876) can0 1E081001#0000000000000000
(1708581158.477022) can0 1E085001#0000000000000000
(1708581158.477171) can0 1E089001#000000000000002A
(1708581158.477316) can0 1E08D001#000000000000002A
(1708581158.477463) can0 1E091001#3F80000000000031
(1708581158.477610) can0 1E095001#3F80000000000032
(1708581158.477755) can0 1E099001#0000000000000000
(1708581158.477899) can0 1E09D001#42B40FEC00000000
(1708581158.478070) can0 1E0A1001#417DB64500000000
(1708581158.478197) can0 1E0A5001#4159610A00000000
(1708581158.478335) can0 1E0A9001#4020000000000000
(1708581158.478477) can0 1E0AD001#4034EA7D00000000
(1708581158.478646) can0 1E0B1001#0000000000000000
(1708581158.478778) can0 1E0B5001#0000000000000000
(1708581158.478928) can0 1E0B9001#0000000000000000
(1708581158.479070) can0 1E0BD001#0000000000000000
(1708581158.479241) can0 1E0C1001#0000000000000000
(1708581158.479388) can0 1E0C5001#0000000000000000
(1708581158.479568) can0 1E0C9001#0000000000000000
(1708581158.479765) can0 1E0CD001#0000000000000000
(1708581158.479833) can0 1E0D1001#0000000000000000
(1708581158.479998) can0 1E0D5001#0000000000000000
(1708581158.480136) can0 1E0D9001#41014FBA00000000
(1708581158.480286) can0 1E0DD001#0000000000000000
(1708581158.480445) can0 1E0E1001#409FADB800000000
(1708581158.480570) can0 1E0E5001#0000000000000000
(1708581158.480739) can0 1E0E9001#BEE367A000000000
(1708581158.480854) can0 1E0ED001#0000000000000000
(1708581158.481029) can0 1E0F1001#0000000000000000
(1708581158.481164) can0 1E0F5001#0000000000000000
(1708581158.481321) can0 1E0F9001#0000000000000000
(1708581158.481455) can0 1E0FD001#0000000000000000
(1708581158.481593) can0 1E101001#0000000000000000
(1708581158.481740) can0 1E105001#0000000000000000
(1708581158.481892) can0 1E109001#0000000000000000
(1708581158.482031) can0 1E10D001#0000000000000000
(1708581158.482173) can0 1E111001#0000000000000000
(1708581158.482322) can0 1E115001#0000000000000000
(1708581158.482468) can0 1E119001#0000000000000000
(1708581158.482616) can0 1E11D001#0000000000000000
(1708581158.482759) can0 1E121001#0000000000000000
(1708581158.482906) can0 1E125001#0000000000000000
(1708581158.483059) can0 1E129001#0000000000000000
(1708581158.483195) can0 1E12D001#0000000000000000
(1708581158.483340) can0 1E131001#0000000000000000
(1708581158.483493) can0 1E135001#0000000000000000
(1708581158.483629) can0 1E139001#4974240000000000
(1708581158.483785) can0 1E13D001#0000000000000000
(1708581158.483925) can0 1E141001#0000000000000000
(1708581158.484071) can0 1E145001#0000000000000000
(1708581158.484222) can0 1E149001#3F80000000000000
(1708581158.484367) can0 1E14D001#0000000000000000
(1708581158.484513) can0 1E151001#0000000000000000
(1708581158.484665) can0 1E155001#0000000000000000
(1708581158.484805) can0 1E159001#0000000000000000
(1708581158.484956) can0 1E15D001#40C0000000000000
(1708581158.485096) can0 1E161001#4190000000000000
(1708581158.485239) can0 1E165001#0000000000000000
(1708581158.485387) can0 1E169001#0000000000000000
(1708581158.485531) can0 1E16D001#0000000000000000
(1708581158.485683) can0 1E171001#0000000000000000
(1708581158.485834) can0 1E175001#0000000000000000
(1708581158.485975) can0 1E17D001#0000000000000000
(1708581158.486128) can0 1E181001#0000000000000000
(1708581158.486275) can0 1E185001#0000000000000000
(1708581158.486417) can0 1E189001#000000000000002A
(1708581158.486568) can0 1E18D001#0000000000000000
(1708581158.486716) can0 1E191001#0000000000000000
(1708581158.486864) can0 1E179001#0000000000000000
(1708581158.487015) can0 1E195001#0000000000000000
(1708581158.487166) can0 1E199001#0000000000000000
(1708581158.487300) can0 1E19D001#0000000000000000
(1708581158.487452) can0 1E1A1001#0000000000000000
(1708581158.487597) can0 1E1A5001#0000000000000000
(1708581158.487745) can0 1E1A9001#0000000000000000
(1708581158.487889) can0 1E1AD001#0000000000000000
(1708581158.488028) can0 1E1B1001#0000000000000000
(1708581158.488183) can0 1E1B5001#0000000000000000
(1708581158.488327) can0 1E1B9001#0000000000000000
(1708581158.488473) can0 1E1BD001#0000000000000000
(1708581158.488623) can0 1E1C1001#0000000000000000
(1708581158.488768) can0 1E1C5001#0000000000000000
(1708581158.488918) can0 1E1C9001#0000000000000000
(1708581158.489062) can0 1E1CD001#0000000000000000
(1708581158.489207) can0 1E021001#42EA131F00000000
(1708581158.489353) can0 1E025001#BF9162A600000000
(1708581158.489493) can0 1E029001#42C8000000000000
(1708581158.489642) can0 1E02D001#0000000000000000
(1708581158.489789) can0 1E031001#0000000000000026
(1708581158.489949) can0 1E001001#00000000000000CC
(1708581158.490096) can0 1E005001#0000000000000020
(1708581158.490239) can0 1E009001#409FBA0100000000
(1708581158.490384) can0 1E00D001#4001400200000000
(1708581158.490539) can0 1E011001#0000000000000000
(1708581158.490676) can0 1E015001#4147417000000000
(1708581158.490822) can0 1E019001#41F0000000000003
(1708581158.490965) can0 1E01D001#42D23CD300000000
(1708581158.491109) can0 1E035001#0000000000000028
(1708581158.491256) can0 1E039001#41012F0500000000
(1708581158.491403) can0 1E03D001#0000000000000000
(1708581158.491555) can0 1E041001#0000000000000000
(1708581158.491710) can0 1E045001#0000000000000000
(1708581158.491847) can0 1E049001#4170000000000000
(1708581158.491995) can0 1E04D001#000000000000002C
(1708581158.492141) can0 1E051001#000000000000002C
(1708581158.492287) can0 1E055001#000000000000002A
(1708581158.492435) can0 1E059001#429FF1BB00000000
(1708581158.492571) can0 1E05D001#42C473BE00000017
(1708581158.492711) can0 1E061001#C0C755DB00000000
(1708581158.492857) can0 1E065001#425FD98500000000
(1708581158.492993) can0 1E069001#42902B2500000018
(1708581158.493140) can0 1E06D001#41406E2C00000000
(1708581158.493285) can0 1E071001#0000000000000000
(1708581158.493436) can0 1E075001#0000000000000000
(1708581158.493582) can0 1E079001#0000000000000011
(1708581158.493730) can0 1E07D001#000000000000002A
(1708581158.493878) can0 1E081001#0000000000000000
(1708581158.494029) can0 1E085001#0000000000000000
(1708581158.494176) can0 1E089001#000000000000002A
(1708581158.494321) can0 1E08D001#000000000000002A
(1708581158.494465) can0 1E091001#3F80000000000031
(1708581158.494613) can0 1E095001#3F80000000000032
(1708581158.494757) can0 1E099001#0000000000000000
(1708581158.494902) can0 1E09D001#42B40C3B00000000
(1708581158.495042) can0 1E0A1001#417DB64500000000
(1708581158.495190) can0 1E0A5001#4159619300000000
(1708581158.495330) can0 1E0A9001#4020000000000000
(1708581158.495475) can0 1E0AD001#4035287E00000000
(1708581158.495634) can0 1E0B1001#0000000000000000
(1708581158.495762) can0 1E0B5001#0000000000000000
(1708581158.495951) can0 1E0B9001#0000000000000000
(1708581158.496091) can0 1E0BD001#0000000000000000
(1708581158.496240) can0 1E0C1001#0000000000000000
(1708581158.496387) can0 1E0C5001#0000000000000000
(1708581158.496529) can0 1E0C9001#0000000000000000
(1708581158.496672) can0 1E0CD001#0000000000000000
(1708581158.496829) can0 1E0D1001#0000000000000000
(1708581158.496990) can0 1E0D5001#0000000000000000
(1708581158.497130) can0 1E0D9001#410123FF00000000
(1708581158.497280) can0 1E0DD001#0000000000000000
(1708581158.497454) can0 1E0E1001#409F9CCA00000000
(1708581158.497591) can0 1E0E5001#0000000000000000
(1708581158.497726) can0 1E0E9001#BEEBCB8000000000
(1708581158.497868) can0 1E0ED001#0000000000000000
(1708581158.498013) can0 1E0F1001#0000000000000000
(1708581158.498199) can0 1E0F5001#0000000000000000
(1708581158.498339) can0 1E0F9001#0000000000000000
(1708581158.498440) can0 1E0FD001#0000000000000000
(1708581158.498635) can0 1E101001#0000000000000000
(1708581158.498744) can0 1E105001#0000000000000000
(1708581158.498891) can0 1E109001#0000000000000000
(1708581158.499030) can0 1E10D001#0000000000000000
(1708581158.499173) can0 1E111001#0000000000000000
(1708581158.499323) can0 1E115001#0000000000000000
(1708581158.499470) can0 1E119001#0000000000000000
(1708581158.499618) can0 1E11D001#0000000000000000
(1708581158.499766) can0 1E121001#0000000000000000
(1708581158.499907) can0 1E125001#0000000000000000
(1708581158.500094) can0 1E129001#0000000000000000
(1708581158.500201) can0 1E12D001#0000000000000000
(1708581158.500343) can0 1E131001#0000000000000000
(1708581158.500492) can0 1E135001#0000000000000000
(1708581158.500635) can0 1E139001#4974240000000000
(1708581158.500779) can0 1E13D001#0000000000000000
(1708581158.500932) can0 1E141001#0000000000000000
(1708581158.501072) can0 1E145001#0000000000000000
(1708581158.501222) can0 1E149001#3F80000000000000
(1708581158.501368) can0 1E14D001#0000000000000000
(1708581158.501518) can0 1E151001#0000000000000000
(1708581158.501660) can0 1E155001#0000000000000000
(1708581158.501813) can0 1E159001#0000000000000000
(1708581158.501954) can0 1E15D001#40C0000000000000
(1708581158.502138) can0 1E161001#4190000000000000
(1708581158.502244) can0 1E165001#0000000000000000
(1708581158.502398) can0 1E169001#0000000000000000
(1708581158.502535) can0 1E16D001#0000000000000000
(1708581158.502693) can0 1E171001#0000000000000000
(1708581158.502834) can0 1E175001#0000000000000000
(1708581158.502980) can0 1E17D001#0000000000000000
(1708581158.503129) can0 1E181001#0000000000000000
(1708581158.503276) can0 1E185001#0000000000000000
(1708581158.503420) can0 1E189001#000000000000002A
(1708581158.503566) can0 1E18D001#0000000000000000
(1708581158.503718) can0 1E191001#0000000000000000
(1708581158.503863) can0 1E179001#0000000000000000
(1708581158.504009) can0 1E195001#0000000000000000
(1708581158.504156) can0 1E199001#0000000000000000
(1708581158.504308) can0 1E19D001#0000000000000000
(1708581158.504452) can0 1E1A1001#0000000000000000
(1708581158.504594) can0 1E1A5001#0000000000000000
(1708581158.504739) can0 1E1A9001#0000000000000000
(1708581158.504890) can0 1E1AD001#0000000000000000
(1708581158.505072) can0 1E1B1001#0000000000000000
(1708581158.505190) can0 1E1B5001#0000000000000000
(1708581158.505334) can0 1E1B9001#0000000000000000
(1708581158.505481) can0 1E1BD001#0000000000000000
(1708581158.505629) can0 1E1C1001#0000000000000000
(1708581158.505775) can0 1E1C5001#0000000000000000
(1708581158.505928) can0 1E1C9001#0000000000000000
(1708581158.506071) can0 1E1CD001#0000000000000000
(1708581158.506209) can0 1E021001#42E9FC0100000000
(1708581158.506356) can0 1E025001#BF91000400000000
(1708581158.506500) can0 1E029001#42C8000000000000
(1708581158.506649) can0 1E02D001#0000000000000000
(1708581158.506797) can0 1E031001#0000000000000026
(1708581158.506953) can0 1E001001#00000000000000DE
(1708581158.507102) can0 1E005001#0000000000000020
(1708581158.507243) can0 1E009001#409F99EF00000000
(1708581158.507381) can0 1E00D001#4001182400000000
(1708581158.507531) can0 1E011001#0000000000000000
(1708581158.507705) can0 1E015001#41474CD000000000
(1708581158.507830) can0 1E019001#41F0000000000003
(1708581158.507967) can0 1E01D001#42D238F900000000
(1708581158.508106) can0 1E035001#0000000000000028
(1708581158.508253) can0 1E039001#4101182400000000
(1708581158.508400) can0 1E03D001#0000000000000000
(1708581158.508551) can0 1E041001#0000000000000000
(1708581158.508696) can0 1E045001#0000000000000000
(1708581158.508844) can0 1E049001#4170000000000000
(1708581158.508991) can0 1E04D001#000000000000002C
(1708581158.509140) can0 1E051001#000000000000002C
(1708581158.509284) can0 1E055001#000000000000002A
(1708581158.509430) can0 1E059001#429FE4CA00000000
(1708581158.509565) can0 1E05D001#42C44AB000000017
(1708581158.509707) can0 1E061001#C0C6EA0500000000
(1708581158.509852) can0 1E065001#4260770300000000
(1708581158.509990) can0 1E069001#429061F700000018
(1708581158.510133) can0 1E06D001#414310E100000000
(1708581158.510284) can0 1E071001#0000000000000000
(1708581158.510428) can0 1E075001#0000000000000000
(1708581158.510578) can0 1E079001#0000000000000011
(1708581158.510725) can0 1E07D001#000000000000002A
(1708581158.510873) can0 1E081001#0000000000000000
(1708581158.511021) can0 1E085001#0000000000000000
(1708581158.511171) can0 1E089001#000000000000002A
(1708581158.511321) can0 1E08D001#000000000000002A
(1708581158.511465) can0 1E091001#3F80000000000031
(1708581158.511614) can0 1E095001#3F80000000000032
(1708581158.511757) can0 1E099001#0000000000000000
(1708581158.511901) can0 1E09D001#42B4099200000000
(1708581158.512040) can0 1E0A1001#417DB64500000000
(1708581158.512185) can0 1E0A5001#415961DE00000000
(1708581158.512332) can0 1E0A9001#4020000000000000
(1708581158.512472) can0 1E0AD001#403546DC00000000
(1708581158.512629) can0 1E0B1001#0000000000000000
(1708581158.512775) can0 1E0B5001#0000000000000000
(1708581158.512945) can0 1E0B9001#0000000000000000
(1708581158.513085) can0 1E0BD001#0000000000000000
(1708581158.513232) can0 1E0C1001#0000000000000000
(1708581158.513403) can0 1E0C5001#0000000000000000
(1708581158.513523) can0 1E0C9001#0000000000000000
(1708581158.513701) can0 1E0CD001#0000000000000000
(1708581158.513865) can0 1E0D1001#0000000000000000
(1708581158.513949) can0 1E0D5001#0000000000000000
(1708581158.514139) can0 1E0D9001#4101055400000000
(1708581158.514262) can0 1E0DD001#0000000000000000
(1708581158.514443) can0 1E0E1001#40A0961200000000
(1708581158.514528) can0 1E0E5001#0000000000000000
(1708581158.514702) can0 1E0E9001#BEEF6B8000000000
(1708581158.514843) can0 1E0ED001#0000000000000000
(1708581158.515005) can0 1E0F5001#0000000000000000
(1708581158.515159) can0 1E0F9001#0000000000000000
(1708581158.515289) can0 1E0FD001#0000000000000000
(1708581158.515442) can0 1E101001#0000000000000000
(1708581158.515596) can0 1E105001#0000000000000000
(1708581158.515753) can0 1E0F1001#0000000000000000
(1708581158.515892) can0 1E109001#0000000000000000
(1708581158.516030) can0 1E10D001#0000000000000000
(1708581158.516192) can0 1E111001#0000000000000000
(1708581158.516315) can0 1E115001#0000000000000000
(1708581158.516455) can0 1E119001#0000000000000000
(1708581158.516608) can0 1E11D001#0000000000000000
(1708581158.516749) can0 1E121001#0000000000000000
(1708581158.516899) can0 1E125001#0000000000000000
(1708581158.517042) can0 1E129001#0000000000000000
(1708581158.517190) can0 1E12D001#0000000000000000
(1708581158.517337) can0 1E131001#0000000000000000
(1708581158.517488) can0 1E135001#0000000000000000
(1708581158.517626) can0 1E139001#4974240000000000
(1708581158.517775) can0 1E13D001#0000000000000000
(1708581158.517921) can0 1E141001#0000000000000000
(1708581158.518114) can0 1E145001#0000000000000000
(1708581158.518217) can0 1E149001#3F80000000000000
(1708581158.518362) can0 1E14D001#0000000000000000
(1708581158.518509) can0 1E151001#0000000000000000
(1708581158.518655) can0 1E155001#0000000000000000
(1708581158.518798) can0 1E159001#0000000000000000
(1708581158.518946) can0 1E15D001#40C0000000000000
(1708581158.519090) can0 1E161001#4190000000000000
(1708581158.519241) can0 1E165001#0000000000000000
(1708581158.519383) can0 1E169001#0000000000000000
(1708581158.519541) can0 1E16D001#0000000000000000
(1708581158.519730) can0 1E171001#0000000000000000
(1708581158.519832) can0 1E175001#0000000000000000
(1708581158.519974) can0 1E17D001#0000000000000000
(1708581158.520120) can0 1E181001#0000000000000000
(1708581158.520276) can0 1E185001#0000000000000000
(1708581158.520417) can0 1E189001#000000000000002A
(1708581158.520567) can0 1E18D001#0000000000000000
(1708581158.520711) can0 1E191001#0000000000000000
(1708581158.520859) can0 1E179001#0000000000000000
(1708581158.521003) can0 1E195001#0000000000000000
(1708581158.521145) can0 1E199001#0000000000000000
(1708581158.521293) can0 1E19D001#0000000000000000
(1708581158.521438) can0 1E1A1001#0000000000000000
(1708581158.521588) can0 1E1A5001#0000000000000000
(1708581158.521735) can0 1E1A9001#0000000000000000
(1708581158.521879) can0 1E1AD001#0000000000000000
(1708581158.522028) can0 1E1B1001#0000000000000000
(1708581158.522180) can0 1E1B5001#0000000000000000
(1708581158.522323) can0 1E1B9001#0000000000000000
(1708581158.522470) can0 1E1BD001#0000000000000000
(1708581158.522618) can0 1E1C1001#0000000000000000
(1708581158.522765) can0 1E1C5001#0000000000000000
(1708581158.522914) can0 1E1C9001#0000000000000000
(1708581158.523060) can0 1E1CD001#0000000000000000
(1708581158.523204) can0 1E021001#42E9E73E00000000
(1708581158.523345) can0 1E025001#BF90A76C00000000
(1708581158.523486) can0 1E029001#42C8000000000000
(1708581158.523637) can0 1E02D001#0000000000000000
(1708581158.523781) can0 1E031001#0000000000000026
(1708581158.523948) can0 1E001001#00000000000000EE
(1708581158.524094) can0 1E005001#0000000000000020
(1708581158.524238) can0 1E009001#40A0B60400000000
(1708581158.524383) can0 1E00D001#4000F61500000000
(1708581158.524529) can0 1E011001#0000000000000000
(1708581158.524672) can0 1E015001#4147567600000000
(1708581158.524824) can0 1E019001#41F0000000000003
(1708581158.524963) can0 1E01D001#42D2360C00000000
(1708581158.525107) can0 1E035001#0000000000000028
(1708581158.525257) can0 1E039001#4101004000000000
(1708581158.525403) can0 1E03D001#0000000000000000
(1708581158.525553) can0 1E041001#C07F298000000000
(1708581158.525696) can0 1E045001#0000000000000000
(1708581158.525843) can0 1E049001#4170000000000000
(1708581158.525991) can0 1E04D001#000000000000002C
(1708581158.526136) can0 1E051001#000000000000002C
(1708581158.526289) can0 1E055001#000000000000002A
(1708581158.526426) can0 1E059001#429FD6AA00000000
(1708581158.526570) can0 1E05D001#42C43D1D00000017
(1708581158.526713) can0 1E061001#C0C89FF800000000
(1708581158.526850) can0 1E065001#4260DA4B00000000
(1708581158.526994) can0 1E069001#4290A55C00000018
(1708581158.527134) can0 1E06D001#4142D66000000000
(1708581158.527285) can0 1E071001#0000000000000000
(1708581158.527431) can0 1E075001#0000000000000000
(1708581158.527579) can0 1E079001#0000000000000011
(1708581158.527728) can0 1E07D001#000000000000002A
(1708581158.527878) can0 1E081001#0000000000000000
(1708581158.528024) can0 1E085001#0000000000000000
(1708581158.528177) can0 1E089001#000000000000002A
(1708581158.528321) can0 1E08D001#000000000000002A
(1708581158.528464) can0 1E091001#3F80000000000031
(1708581158.528616) can0 1E095001#3F80000000000032
(1708581158.528759) can0 1E099001#0000000000000000
(1708581158.528902) can0 1E09D001#42B408E800000000
(1708581158.529047) can0 1E0A1001#417DB64500000000
(1708581158.529189) can0 1E0A5001#4159620000000000
(1708581158.529332) can0 1E0A9001#4020000000000000
(1708581158.529476) can0 1E0AD001#40354ABC00000000
(1708581158.529629) can0 1E0B1001#0000000000000000
(1708581158.529774) can0 1E0B5001#0000000000000000
(1708581158.529934) can0 1E0B9001#0000000000000000
(1708581158.530078) can0 1E0BD001#0000000000000000
(1708581158.530238) can0 1E0C1001#0000000000000000
(1708581158.530389) can0 1E0C5001#0000000000000000
(1708581158.530526) can0 1E0C9001#0000000000000000
(1708581158.530681) can0 1E0CD001#0000000000000000
(1708581158.530849) can0 1E0D1001#0000000000000000
(1708581158.531007) can0 1E0D5001#0000000000000000
(1708581158.531103) can0 1E0D9001#4100FF4A00000000
(1708581158.531294) can0 1E0DD001#0000000000000000
(1708581158.531468) can0 1E0E1001#409F884900000000
(1708581158.531580) can0 1E0E5001#0000000000000000
(1708581158.531808) can0 1E0E9001#BEF0FC4000000000
(1708581158.531910) can0 1E0ED001#0000000000000000
(1708581158.532025) can0 1E0F1001#0000000000000000
(1708581158.532170) can0 1E0F5001#0000000000000000
(1708581158.532312) can0 1E0F9001#0000000000000000
(1708581158.532451) can0 1E0FD001#0000000000000000
(1708581158.532608) can0 1E101001#0000000000000000
(1708581158.532744) can0 1E105001#0000000000000000
(1708581158.532890) can0 1E109001#0000000000000000
(1708581158.533040) can0 1E10D001#0000000000000000
(1708581158.533177) can0 1E111001#0000000000000000
(1708581158.533331) can0 1E115001#0000000000000000
(1708581158.533479) can0 1E119001#0000000000000000
(1708581158.533614) can0 1E11D001#0000000000000000
(1708581158.533764) can0 1E121001#0000000000000000
(1708581158.533906) can0 1E125001#0000000000000000
(1708581158.534051) can0 1E129001#0000000000000000
(1708581158.534198) can0 1E12D001#0000000000000000
(1708581158.534342) can0 1E131001#0000000000000000
(1708581158.534491) can0 1E135001#0000000000000000
(1708581158.534631) can0 1E139001#4974240000000000
(1708581158.534783) can0 1E13D001#0000000000000000
(1708581158.534931) can0 1E141001#0000000000000000
(1708581158.535075) can0 1E145001#0000000000000000
(1708581158.535221) can0 1E149001#3F80000000000000
(1708581158.535373) can0 1E14D001#0000000000000000
(1708581158.535516) can0 1E151001#0000000000000000
(1708581158.535705) can0 1E155001#0000000000000000
(1708581158.535811) can0 1E159001#0000000000000000
(1708581158.535955) can0 1E15D001#40C0000000000000
(1708581158.536104) can0 1E161001#4190000000000000
(1708581158.536244) can0 1E165001#0000000000000000
(1708581158.536390) can0 1E169001#0000000000000000
(1708581158.536536) can0 1E16D001#0000000000000000
(1708581158.536695) can0 1E171001#0000000000000000
(1708581158.536836) can0 1E175001#0000000000000000
(1708581158.536978) can0 1E17D001#0000000000000000
(1708581158.537130) can0 1E181001#0000000000000000
(1708581158.537276) can0 1E185001#0000000000000000
(1708581158.537422) can0 1E189001#000000000000002A
(1708581158.537565) can0 1E18D001#0000000000000000
(1708581158.537718) can0 1E191001#0000000000000000
(1708581158.537860) can0 1E179001#0000000000000000
(1708581158.538009) can0 1E195001#0000000000000000
(1708581158.538154) can0 1E199001#0000000000000000
(1708581158.538308) can0 1E19D001#0000000000000000
(1708581158.538450) can0 1E1A1001#0000000000000000
(1708581158.538595) can0 1E1A5001#0000000000000000
(1708581158.538744) can0 1E1A9001#0000000000000000
(1708581158.538891) can0 1E1AD001#0000000000000000
(1708581158.539039) can0 1E1B1001#0000000000000000
(1708581158.539187) can0 1E1B5001#0000000000000000
(1708581158.539345) can0 1E1B9001#0000000000000000
(1708581158.539482) can0 1E1BD001#0000000000000000
(1708581158.539642) can0 1E1C1001#0000000000000000
(1708581158.539782) can0 1E1C5001#0000000000000000
(1708581158.539939) can0 1E1C9001#0000000000000000
(1708581158.540072) can0 1E1CD001#0000000000000000
(1708581158.540209) can0 1E021001#42E9D58000000000
(1708581158.540354) can0 1E025001#BF905BBC00000000
(1708581158.540494) can0 1E029001#42C8000000000000
(1708581158.540647) can0 1E02D001#0000000000000000
(1708581158.540788) can0 1E031001#0000000000000026
(1708581158.540948) can0 1E001001#0000000000000100
(1708581158.541095) can0 1E005001#0000000000000020
(1708581158.541237) can0 1E009001#409F903D00000000
(1708581158.541381) can0 1E00D001#4000E88200000000
(1708581158.541528) can0 1E011001#0000000000000000
(1708581158.541674) can0 1E015001#41475A6000000000
(1708581158.541822) can0 1E019001#41F0000000000003
(1708581158.541969) can0 1E035001#0000000000000028
(1708581158.542112) can0 1E039001#4100E88200000000
(1708581158.542261) can0 1E03D001#0000000000000000
(1708581158.542414) can0 1E041001#0000000000000000
(1708581158.542557) can0 1E045001#0000000000000000
(1708581158.542706) can0 1E049001#4170000000000000
(1708581158.542844) can0 1E01D001#42D22EF700000000
(1708581158.542993) can0 1E04D001#000000000000002C
(1708581158.543140) can0 1E051001#000000000000002C
(1708581158.543283) can0 1E055001#000000000000002A
(1708581158.543426) can0 1E059001#429FC92A00000000
(1708581158.543565) can0 1E05D001#42C42DE700000017
(1708581158.543712) can0 1E061001#C0C729C900000000
(1708581158.543850) can0 1E065001#42611F6000000000
(1708581158.543990) can0 1E069001#4290C56900000018
(1708581158.544135) can0 1E06D001#413FC2A900000000
(1708581158.544288) can0 1E071001#0000000000000000
(1708581158.544430) can0 1E075001#0000000000000000
(1708581158.544584) can0 1E079001#0000000000000011
(1708581158.544727) can0 1E07D001#000000000000002A
(1708581158.544877) can0 1E081001#0000000000000000
(1708581158.545026) can0 1E085001#0000000000000000
(1708581158.545175) can0 1E089001#000000000000002A
(1708581158.545331) can0 1E08D001#000000000000002A
(1708581158.545474) can0 1E091001#3F80000000000031
(1708581158.545620) can0 1E095001#3F80000000000032
(1708581158.545766) can0 1E099001#0000000000000000
(1708581158.545905) can0 1E09D001#42B407C800000000
(1708581158.546051) can0 1E0A1001#417DB64500000000
(1708581158.546194) can0 1E0A5001#4159621A00000000
(1708581158.546342) can0 1E0A9001#4020000000000000
(1708581158.546476) can0 1E0AD001#4035D00300000000
(1708581158.546627) can0 1E0B1001#0000000000000000
(1708581158.546769) can0 1E0B5001#0000000000000000
(1708581158.546924) can0 1E0B9001#0000000000000000
(1708581158.547083) can0 1E0BD001#0000000000000000
(1708581158.547232) can0 1E0C1001#0000000000000000
(1708581158.547371) can0 1E0C5001#0000000000000000
(1708581158.547518) can0 1E0C9001#0000000000000000
(1708581158.547783) can0 1E0CD001#0000000000000000
(1708581158.547842) can0 1E0D1001#0000000000000000
(1708581158.547988) can0 1E0D5001#0000000000000000
(1708581158.548128) can0 1E0D9001#4100ECDF00000000
(1708581158.548270) can0 1E0DD001#0000000000000000
(1708581158.548417) can0 1E0E1001#409FA3CE00000000
(1708581158.548574) can0 1E0E5001#0000000000000000
(1708581158.548714) can0 1E0E9001#BEF3830000000000
(1708581158.548849) can0 1E0ED001#0000000000000000
(1708581158.549002) can0 1E0F1001#0000000000000000
(1708581158.549153) can0 1E0F5001#0000000000000000
(1708581158.549298) can0 1E0F9001#0000000000000000
(1708581158.549448) can0 1E0FD001#0000000000000000
(1708581158.549587) can0 1E101001#0000000000000000
(1708581158.549735) can0 1E105001#0000000000000000
(1708581158.549881) can0 1E109001#0000000000000000
(1708581158.550030) can0 1E10D001#0000000000000000
(1708581158.550167) can0 1E111001#0000000000000000
(1708581158.550321) can0 1E115001#0000000000000000
(1708581158.550471) can0 1E119001#0000000000000000
(1708581158.550611) can0 1E11D001#0000000000000000
(1708581158.550755) can0 1E121001#0000000000000000
(1708581158.550898) can0 1E125001#0000000000000000
(1708581158.551048) can0 1E129001#0000000000000000
(1708581158.551196) can0 1E12D001#0000000000000000
(1708581158.551340) can0 1E131001#0000000000000000
(1708581158.551486) can0 1E135001#0000000000000000
(1708581158.551631) can0 1E139001#4974240000000000
(1708581158.551778) can0 1E13D001#0000000000000000
(1708581158.551931) can0 1E141001#0000000000000000
(1708581158.552068) can0 1E145001#0000000000000000
(1708581158.552215) can0 1E149001#3F80000000000000
(1708581158.552370) can0 1E14D001#0000000000000000
(1708581158.552511) can0 1E151001#0000000000000000
(1708581158.552659) can0 1E155001#0000000000000000
(1708581158.552804) can0 1E159001#0000000000000000
(1708581158.552956) can0 1E15D001#40C0000000000000
(1708581158.553100) can0 1E161001#4190000000000000
(1708581158.553243) can0 1E165001#0000000000000000
(1708581158.553392) can0 1E169001#0000000000000000
(1708581158.553546) can0 1E16D001#0000000000000000
(1708581158.553689) can0 1E171001#0000000000000000
(1708581158.553833) can0 1E175001#0000000000000000
(1708581158.553982) can0 1E17D001#0000000000000000
(1708581158.554127) can0 1E181001#0000000000000000
(1708581158.554274) can0 1E185001#0000000000000000
(1708581158.554416) can0 1E189001#000000000000002A
(1708581158.554563) can0 1E18D001#0000000000000000
(1708581158.554716) can0 1E179001#0000000000000000
(1708581158.554858) can0 1E191001#0000000000000000
(1708581158.555004) can0 1E195001#0000000000000000
(1708581158.555152) can0 1E199001#0000000000000000
(1708581158.555295) can0 1E19D001#0000000000000000
(1708581158.555449) can0 1E1A1001#0000000000000000
(1708581158.555587) can0 1E1A5001#0000000000000000
(1708581158.555736) can0 1E1A9001#0000000000000000
(1708581158.555886) can0 1E1AD001#0000000000000000
(1708581158.556027) can0 1E1B1001#0000000000000000
(1708581158.556178) can0 1E1B5001#0000000000000000
(1708581158.556329) can0 1E1B9001#0000000000000000
(1708581158.556471) can0 1E1BD001#0000000000000000
(1708581158.556621) can0 1E1C1001#0000000000000000
(1708581158.556767) can0 1E1C5001#0000000000000000
(1708581158.556918) can0 1E1C9001#0000000000000000
(1708581158.557064) can0 1E1CD001#0000000000000000
(1708581158.557202) can0 1E021001#42E9CE6E00000000
(1708581158.557345) can0 1E025001#BF903D9200000000
(1708581158.557491) can0 1E029001#42C8000000000000
(1708581158.557637) can0 1E02D001#0000000000000000
(1708581158.557789) can0 1E031001#0000000000000026
(1708581158.557948) can0 1E001001#0000000000000110
(1708581158.558109) can0 1E005001#0000000000000020
(1708581158.558238) can0 1E009001#409FA3E900000000
(1708581158.558382) can0 1E00D001#4000EAE900000000
(1708581158.558528) can0 1E011001#0000000000000000
(1708581158.558677) can0 1E015001#414759C100000000
(1708581158.558818) can0 1E019001#41F0000000000003
(1708581158.558957) can0 1E01D001#42D2373D00000000
(1708581158.559104) can0 1E035001#0000000000000028
(1708581158.559252) can0 1E039001#4100EAD000000000
(1708581158.559400) can0 1E03D001#0000000000000000
(1708581158.559548) can0 1E041001#0000000000000000
(1708581158.559701) can0 1E045001#0000000000000000
(1708581158.559842) can0 1E049001#4170000000000000
(1708581158.559991) can0 1E04D001#000000000000002C
(1708581158.560136) can0 1E051001#000000000000002C
(1708581158.560289) can0 1E055001#000000000000002A
(1708581158.560428) can0 1E059001#429FCA4200000000
(1708581158.560571) can0 1E05D001#42C4262B00000017
(1708581158.560706) can0 1E061001#C0C791D100000000
(1708581158.560847) can0 1E065001#4260B27F00000000
(1708581158.560989) can0 1E069001#4290C59E00000018
(1708581158.561132) can0 1E06D001#4142440900000000
(1708581158.561283) can0 1E071001#0000000000000000
(1708581158.561428) can0 1E075001#0000000000000000
(1708581158.561580) can0 1E079001#0000000000000011
(1708581158.561730) can0 1E07D001#000000000000002A
(1708581158.561874) can0 1E081001#0000000000000000
(1708581158.562024) can0 1E085001#0000000000000000
(1708581158.562169) can0 1E089001#000000000000002A
(1708581158.562318) can0 1E08D001#000000000000002A
(1708581158.562460) can0 1E091001#3F80000000000031
(1708581158.562606) can0 1E095001#3F80000000000032
(1708581158.562754) can0 1E099001#0000000000000000
(1708581158.562896) can0 1E09D001#42B4076600000000
(1708581158.563036) can0 1E0A1001#417DB64500000000
(1708581158.563180) can0 1E0A5001#4159621E00000000
(1708581158.563328) can0 1E0A9001#4020000000000000
(1708581158.563473) can0 1E0AD001#403870E200000000
(1708581158.563619) can0 1E0B1001#0000000000000000
(1708581158.563774) can0 1E0B5001#0000000000000000
(1708581158.563928) can0 1E0B9001#0000000000000000
(1708581158.564075) can0 1E0BD001#0000000000000000
(1708581158.564225) can0 1E0C1001#0000000000000000
(1708581158.564363) can0 1E0C5001#0000000000000000
(1708581158.564514) can0 1E0C9001#0000000000000000
(1708581158.564659) can0 1E0CD001#0000000000000000
(1708581158.564813) can0 1E0D1001#0000000000000000
(1708581158.564968) can0 1E0D5001#0000000000000000
(1708581158.565120) can0 1E0D9001#4100E62600000000
(1708581158.565264) can0 1E0DD001#0000000000000000
(1708581158.565417) can0 1E0E1001#409FAA9D00000000
(1708581158.565553) can0 1E0E5001#0000000000000000
(1708581158.565711) can0 1E0E9001#BEF4770000000000
(1708581158.565849) can0 1E0ED001#0000000000000000
(1708581158.565993) can0 1E0F5001#0000000000000000
(1708581158.566142) can0 1E0F9001#0000000000000000
(1708581158.566305) can0 1E0FD001#0000000000000000
(1708581158.566448) can0 1E101001#0000000000000000
(1708581158.566592) can0 1E105001#0000000000000000
(1708581158.566736) can0 1E0F1001#0000000000000000
(1708581158.566878) can0 1E109001#0000000000000000
(1708581158.567030) can0 1E10D001#0000000000000000
(1708581158.567175) can0 1E111001#0000000000000000
(1708581158.567325) can0 1E115001#0000000000000000
(1708581158.567469) can0 1E119001#0000000000000000
(1708581158.567621) can0 1E11D001#0000000000000000
(1708581158.567756) can0 1E121001#0000000000000000
(1708581158.567926) can0 1E125001#0000000000000000
(1708581158.568050) can0 1E129001#0000000000000000
(1708581158.568209) can0 1E12D001#0000000000000000
(1708581158.568347) can0 1E131001#0000000000000000
(1708581158.568489) can0 1E135001#0000000000000000
(1708581158.568650) can0 1E139001#4974240000000000
(1708581158.568777) can0 1E13D001#0000000000000000
(1708581158.568926) can0 1E141001#0000000000000000
(1708581158.569069) can0 1E145001#0000000000000000
(1708581158.569220) can0 1E149001#3F80000000000000
(1708581158.569372) can0 1E14D001#0000000000000000
(1708581158.569514) can0 1E151001#0000000000000000
(1708581158.569660) can0 1E155001#0000000000000000
(1708581158.569810) can0 1E159001#0000000000000000
(1708581158.569955) can0 1E15D001#40C0000000000000
(1708581158.570095) can0 1E161001#4190000000000000
(1708581158.570243) can0 1E165001#0000000000000000
(1708581158.570386) can0 1E169001#0000000000000000
(1708581158.570540) can0 1E16D001#0000000000000000
(1708581158.570683) can0 1E171001#0000000000000000
(1708581158.570828) can0 1E175001#0000000000000000
(1708581158.570978) can0 1E17D001#0000000000000000
(1708581158.571122) can0 1E181001#0000000000000000
(1708581158.571274) can0 1E185001#0000000000000000
