(1708581295.138252) can0 1E0D9001#4100243B00000000 R
(1708581295.138400) can0 1E0DD001#0000000000000000 R
(1708581295.138537) can0 1E0E1001#409E5DD200000000 R
(1708581295.138685) can0 1E0E5001#0000000000000000 R
(1708581295.138840) can0 1E0E9001#BEF707C000000000 R
(1708581295.138995) can0 1E0ED001#0000000000000000 R
(1708581295.139140) can0 1E0F5001#0000000000000000 R
(1708581295.139283) can0 1E0F9001#0000000000000000 R
(1708581295.139423) can0 1E0FD001#0000000000000000 R
(1708581295.139572) can0 1E101001#0000000000000000 R
(1708581295.139721) can0 1E105001#0000000000000000 R
(1708581295.139873) can0 1E0F1001#0000000000000000 R
(1708581295.140021) can0 1E109001#0000000000000000 R
(1708581295.140169) can0 1E10D001#0000000000000000 R
(1708581295.140313) can0 1E111001#0000000000000000 R
(1708581295.140468) can0 1E115001#0000000000000000 R
(1708581295.140608) can0 1E119001#0000000000000000 R
(1708581295.140756) can0 1E11D001#0000000000000000 R
(1708581295.140901) can0 1E121001#0000000000000000 R
(1708581295.141047) can0 1E125001#0000000000000000 R
(1708581295.141196) can0 1E129001#0000000000000000 R
(1708581295.141340) can0 1E12D001#0000000000000000 R
(1708581295.141499) can0 1E131001#0000000000000000 R
(1708581295.141662) can0 1E135001#0000000000000000 R
(1708581295.141778) can0 1E139001#4974240000000000 R
(1708581295.141924) can0 1E13D001#0000000000000000 R
(1708581295.142078) can0 1E141001#0000000000000000 R
(1708581295.142234) can0 1E145001#0000000000000000 R
(1708581295.142375) can0 1E149001#3F80000000000000 R
(1708581295.142516) can0 1E14D001#0000000000000000 R
(1708581295.142668) can0 1E151001#0000000000000000 R
(1708581295.142810) can0 1E155001#0000000000000000 R
(1708581295.142957) can0 1E159001#0000000000000000 R
(1708581295.143099) can0 1E15D001#40C0000000000000 R
(1708581295.143247) can0 1E161001#4190000000000000 R
(1708581295.143391) can0 1E165001#0000000000000000 R
(1708581295.143541) can0 1E169001#0000000000000000 R
(1708581295.143756) can0 1E16D001#0000000000000000 R
(1708581295.143821) can0 1E171001#0000000000000000 R
(1708581295.143987) can0 1E175001#0000000000000000 R
(1708581295.144128) can0 1E179001#0000000000000000 R
(1708581295.144279) can0 1E17D001#0000000000000000 R
(1708581295.144425) can0 1E181001#0000000000000000 R
(1708581295.144572) can0 1E185001#0000000000000000 R
(1708581295.144721) can0 1E189001#000000000000002A R
(1708581295.144858) can0 1E18D001#0000000000000000 R
(1708581295.145003) can0 1E191001#0000000000000000 R
(1708581295.145160) can0 1E195001#0000000000000000 R
(1708581295.145306) can0 1E199001#0000000000000000 R
(1708581295.145476) can0 1E19D001#0000000000000000 R
(1708581295.145619) can0 1E1A1001#0000000000000000 R
(1708581295.145753) can0 1E1A5001#0000000000000000 R
(1708581295.145919) can0 1E1A9001#0000000000000000 R
(1708581295.146048) can0 1E1AD001#0000000000000000 R
(1708581295.146232) can0 1E1B1001#0000000000000000 R
(1708581295.146311) can0 1E1B5001#0000000000000000 R
(1708581295.146532) can0 1E1B9001#0000000000000000 R
(1708581295.146668) can0 1E1BD001#0000000000000000 R
(1708581295.146783) can0 1E1C1001#0000000000000000 R
(1708581295.146946) can0 1E1C5001#0000000000000000 R
(1708581295.147083) can0 1E1C9001#0000000000000000 R
(1708581295.147296) can0 1E1CD001#0000000000000000 R
(1708581295.147383) can0 1E021001#42E9636A00000000 R
(1708581295.147553) can0 1E025001#BF8E74F400000000 R
(1708581295.147623) can0 1E029001#42C8000000000000 R
(1708581295.147807) can0 1E02D001#0000000000000000 R
(1708581295.148008) can0 1E031001#0000000000000026 R
(1708581295.148117) can0 1E001001#00000000000216A2 R
(1708581295.148301) can0 1E005001#0000000000000020 R
(1708581295.148406) can0 1E009001#409E5F6000000000 R
(1708581295.148551) can0 1E00D001#4000202F00000000 R
(1708581295.148704) can0 1E011001#0000000000000000 R
(1708581295.148830) can0 1E015001#4147925700000000 R
(1708581295.148982) can0 1E019001#41F0000000000002 R
(1708581295.149116) can0 1E01D001#42D21CAC00000000 R
(1708581295.149264) can0 1E035001#0000000000000028 R
(1708581295.149410) can0 1E039001#410017AC00000000 R
(1708581295.149561) can0 1E03D001#0000000000000000 R
(1708581295.149710) can0 1E041001#3D33520000000000 R
(1708581295.149853) can0 1E045001#0000000000000000 R
(1708581295.150044) can0 1E049001#4170000000000000 R
(1708581295.150138) can0 1E04D001#000000000000002C R
(1708581295.150290) can0 1E051001#000000000000002C R
(1708581295.150433) can0 1E055001#000000000000002A R
(1708581295.150577) can0 1E059001#429F501200000000 R
(1708581295.150717) can0 1E05D001#42C40F4C00000017 R
(1708581295.150865) can0 1E061001#3DC72A3500000000 R
(1708581295.150998) can0 1E065001#426270E100000000 R
(1708581295.151135) can0 1E069001#42926A2C00000018 R
(1708581295.151281) can0 1E06D001#414392E300000000 R
(1708581295.151422) can0 1E071001#0000000000000000 R
(1708581295.151568) can0 1E075001#40A5A8DB00000000 R
(1708581295.151716) can0 1E079001#0000000000000011 R
(1708581295.151861) can0 1E07D001#000000000000002A R
(1708581295.152014) can0 1E081001#0000000000000000 R
(1708581295.152159) can0 1E085001#0000000000000000 R
(1708581295.152307) can0 1E089001#000000000000002A R
(1708581295.152455) can0 1E08D001#000000000000002A R
(1708581295.152599) can0 1E091001#3F80000000000031 R
(1708581295.152741) can0 1E095001#3F80000000000032 R
(1708581295.152890) can0 1E099001#0000000000000000 R
(1708581295.153032) can0 1E09D001#42B4056700000000 R
(1708581295.153177) can0 1E0A1001#417DB64500000000 R
(1708581295.153316) can0 1E0A5001#4159626400000000 R
(1708581295.153463) can0 1E0A9001#4020000000000000 R
(1708581295.153605) can0 1E0AD001#40349C2C00000000 R
(1708581295.153753) can0 1E0B1001#0000000000000000 R
(1708581295.153902) can0 1E0B5001#0000000000000000 R
(1708581295.154052) can0 1E0B9001#0000000000000000 R
(1708581295.154201) can0 1E0BD001#0000000000000000 R
(1708581295.154357) can0 1E0C1001#0000000000000000 R
(1708581295.154499) can0 1E0C5001#0000000000000000 R
(1708581295.154646) can0 1E0C9001#0000000000000000 R
(1708581295.154795) can0 1E0CD001#0000000000000000 R
(1708581295.154943) can0 1E0D1001#0000000000000000 R
(1708581295.155093) can0 1E0D5001#0000000000000000 R
(1708581295.155241) can0 1E0D9001#41001B2900000000 R
(1708581295.155388) can0 1E0DD001#0000000000000000 R
(1708581295.155534) can0 1E0E1001#409E5E2700000000 R
(1708581295.155716) can0 1E0E5001#0000000000000000 R
(1708581295.155828) can0 1E0E9001#BEF7334000000000 R
(1708581295.155981) can0 1E0ED001#0000000000000000 R
(1708581295.156123) can0 1E0F5001#0000000000000000 R
(1708581295.156271) can0 1E0F9001#0000000000000000 R
(1708581295.156423) can0 1E0FD001#0000000000000000 R
(1708581295.156566) can0 1E101001#0000000000000000 R
(1708581295.156724) can0 1E105001#0000000000000000 R
(1708581295.156870) can0 1E0F1001#0000000000000000 R
(1708581295.157010) can0 1E109001#0000000000000000 R
(1708581295.157164) can0 1E10D001#0000000000000000 R
(1708581295.157305) can0 1E111001#0000000000000000 R
(1708581295.157458) can0 1E115001#0000000000000000 R
(1708581295.157602) can0 1E119001#0000000000000000 R
(1708581295.157766) can0 1E11D001#0000000000000000 R
(1708581295.157893) can0 1E121001#0000000000000000 R
(1708581295.158040) can0 1E125001#0000000000000000 R
(1708581295.158182) can0 1E129001#0000000000000000 R
(1708581295.158334) can0 1E12D001#0000000000000000 R
(1708581295.158479) can0 1E131001#0000000000000000 R
(1708581295.158626) can0 1E135001#0000000000000000 R
(1708581295.158768) can0 1E139001#4974240000000000 R
(1708581295.158914) can0 1E13D001#0000000000000000 R
(1708581295.159064) can0 1E141001#0000000000000000 R
(1708581295.159218) can0 1E145001#0000000000000000 R
(1708581295.159357) can0 1E149001#3F80000000000000 R
(1708581295.159497) can0 1E14D001#0000000000000000 R
(1708581295.159654) can0 1E151001#0000000000000000 R
(1708581295.159784) can0 1E155001#0000000000000000 R
(1708581295.159950) can0 1E159001#0000000000000000 R
(1708581295.160095) can0 1E15D001#40C0000000000000 R
(1708581295.160252) can0 1E161001#4190000000000000 R
(1708581295.160395) can0 1E165001#0000000000000000 R
(1708581295.160542) can0 1E169001#0000000000000000 R
(1708581295.160690) can0 1E16D001#0000000000000000 R
(1708581295.160832) can0 1E171001#0000000000000000 R
(1708581295.160977) can0 1E175001#0000000000000000 R
(1708581295.161119) can0 1E179001#0000000000000000 R
(1708581295.161296) can0 1E17D001#0000000000000000 R
(1708581295.161438) can0 1E181001#0000000000000000 R
(1708581295.161578) can0 1E185001#0000000000000000 R
(1708581295.161707) can0 1E189001#000000000000002A R
(1708581295.161849) can0 1E18D001#0000000000000000 R
(1708581295.161996) can0 1E191001#0000000000000000 R
(1708581295.162143) can0 1E195001#0000000000000000 R
(1708581295.162289) can0 1E199001#0000000000000000 R
(1708581295.162439) can0 1E19D001#0000000000000000 R
(1708581295.162588) can0 1E1A1001#0000000000000000 R
(1708581295.162740) can0 1E1A5001#0000000000000000 R
(1708581295.162882) can0 1E1A9001#0000000000000000 R
(1708581295.163023) can0 1E1AD001#0000000000000000 R
(1708581295.163174) can0 1E1B1001#0000000000000000 R
(1708581295.163320) can0 1E1B5001#0000000000000000 R
(1708581295.163465) can0 1E1B9001#0000000000000000 R
(1708581295.163624) can0 1E1BD001#0000000000000000 R
(1708581295.163791) can0 1E1C1001#0000000000000000 R
(1708581295.163916) can0 1E1C5001#0000000000000000 R
(1708581295.164062) can0 1E1C9001#0000000000000000 R
(1708581295.164205) can0 1E1CD001#0000000000000000 R
(1708581295.164349) can0 1E021001#42E9661800000000 R
(1708581295.164488) can0 1E025001#BF8E806700000000 R
(1708581295.164628) can0 1E029001#42C8000000000000 R
(1708581295.164776) can0 1E02D001#0000000000000000 R
(1708581295.164926) can0 1E031001#0000000000000026 R
(1708581295.165101) can0 1E001001#00000000000216B4 R
(1708581295.165243) can0 1E005001#0000000000000020 R
(1708581295.165384) can0 1E009001#409E60DF00000000 R
(1708581295.165531) can0 1E00D001#400020D000000000 R
(1708581295.165680) can0 1E011001#0000000000000000 R
(1708581295.165819) can0 1E015001#4147923500000000 R
(1708581295.165968) can0 1E019001#41F0000000000002 R
(1708581295.166110) can0 1E01D001#42D21C9100000000 R
(1708581295.166254) can0 1E035001#0000000000000028 R
(1708581295.166401) can0 1E039001#410020D000000000 R
(1708581295.166549) can0 1E03D001#0000000000000000 R
(1708581295.166700) can0 1E041001#0000000000000000 R
(1708581295.166851) can0 1E045001#0000000000000000 R
(1708581295.166992) can0 1E049001#4170000000000000 R
(1708581295.167139) can0 1E04D001#000000000000002C R
(1708581295.167288) can0 1E051001#000000000000002C R
(1708581295.167431) can0 1E055001#000000000000002A R
(1708581295.167576) can0 1E059001#429F531F00000000 R
(1708581295.167720) can0 1E05D001#42C40BC300000017 R
(1708581295.167859) can0 1E061001#3DA436CE00000000 R
(1708581295.168000) can0 1E065001#426236CA00000000 R
(1708581295.168139) can0 1E069001#42926E5D00000018 R
(1708581295.168282) can0 1E06D001#414388B900000000 R
(1708581295.168431) can0 1E071001#0000000000000000 R
(1708581295.168572) can0 1E075001#40A621D200000000 R
(1708581295.168723) can0 1E079001#0000000000000011 R
(1708581295.168866) can0 1E07D001#000000000000002A R
(1708581295.169013) can0 1E081001#0000000000000000 R
(1708581295.169162) can0 1E085001#0000000000000000 R
(1708581295.169309) can0 1E089001#000000000000002A R
(1708581295.169457) can0 1E08D001#000000000000002A R
(1708581295.169603) can0 1E091001#3F80000000000031 R
(1708581295.169746) can0 1E095001#3F80000000000032 R
(1708581295.169895) can0 1E099001#0000000000000000 R
(1708581295.170034) can0 1E09D001#42B4054C00000000 R
(1708581295.170178) can0 1E0A1001#417DB64500000000 R
(1708581295.170318) can0 1E0A5001#4159626D00000000 R
(1708581295.170464) can0 1E0A9001#4020000000000000 R
(1708581295.170606) can0 1E0AD001#4034A4F200000000 R
(1708581295.170756) can0 1E0B1001#0000000000000000 R
(1708581295.170903) can0 1E0B5001#0000000000000000 R
(1708581295.171052) can0 1E0B9001#0000000000000000 R
(1708581295.171201) can0 1E0BD001#0000000000000000 R
(1708581295.171356) can0 1E0C1001#0000000000000000 R
(1708581295.171500) can0 1E0C5001#0000000000000000 R
(1708581295.171646) can0 1E0C9001#0000000000000000 R
(1708581295.171797) can0 1E0CD001#0000000000000000 R
(1708581295.171946) can0 1E0D1001#0000000000000000 R
(1708581295.172095) can0 1E0D5001#0000000000000000 R
(1708581295.172246) can0 1E0D9001#41001D6B00000000 R
(1708581295.172393) can0 1E0DD001#0000000000000000 R
(1708581295.172534) can0 1E0E1001#409E5D1400000000 R
(1708581295.172684) can0 1E0E5001#0000000000000000 R
(1708581295.172826) can0 1E0E9001#BEF728E000000000 R
(1708581295.172984) can0 1E0ED001#0000000000000000 R
(1708581295.173132) can0 1E0F5001#0000000000000000 R
(1708581295.173272) can0 1E0F9001#0000000000000000 R
(1708581295.173425) can0 1E0FD001#0000000000000000 R
(1708581295.173567) can0 1E101001#0000000000000000 R
(1708581295.173718) can0 1E105001#0000000000000000 R
(1708581295.173864) can0 1E0F1001#0000000000000000 R
(1708581295.174017) can0 1E109001#0000000000000000 R
(1708581295.174161) can0 1E10D001#0000000000000000 R
(1708581295.174315) can0 1E111001#0000000000000000 R
(1708581295.174452) can0 1E115001#0000000000000000 R
(1708581295.174605) can0 1E119001#0000000000000000 R
(1708581295.174751) can0 1E11D001#0000000000000000 R
(1708581295.174895) can0 1E121001#0000000000000000 R
(1708581295.175040) can0 1E125001#0000000000000000 R
(1708581295.175188) can0 1E129001#0000000000000000 R
(1708581295.175332) can0 1E12D001#0000000000000000 R
(1708581295.175490) can0 1E131001#0000000000000000 R
(1708581295.175631) can0 1E135001#0000000000000000 R
(1708581295.175757) can0 1E139001#4974240000000000 R
(1708581295.175919) can0 1E13D001#0000000000000000 R
(1708581295.176074) can0 1E141001#0000000000000000 R
(1708581295.176211) can0 1E145001#0000000000000000 R
(1708581295.176356) can0 1E149001#3F80000000000000 R
(1708581295.176505) can0 1E14D001#0000000000000000 R
(1708581295.176658) can0 1E151001#0000000000000000 R
(1708581295.176803) can0 1E155001#0000000000000000 R
(1708581295.176944) can0 1E159001#0000000000000000 R
(1708581295.177106) can0 1E15D001#40C0000000000000 R
(1708581295.177246) can0 1E161001#4190000000000000 R
(1708581295.177399) can0 1E165001#0000000000000000 R
(1708581295.177532) can0 1E169001#0000000000000000 R
(1708581295.177704) can0 1E16D001#0000000000000000 R
(1708581295.177856) can0 1E171001#0000000000000000 R
(1708581295.177995) can0 1E175001#0000000000000000 R
(1708581295.178139) can0 1E179001#0000000000000000 R
(1708581295.178271) can0 1E17D001#0000000000000000 R
(1708581295.178411) can0 1E181001#0000000000000000 R
(1708581295.178554) can0 1E185001#0000000000000000 R
(1708581295.178705) can0 1E189001#000000000000002A R
(1708581295.178846) can0 1E18D001#0000000000000000 R
(1708581295.179002) can0 1E191001#0000000000000000 R
(1708581295.179144) can0 1E195001#0000000000000000 R
(1708581295.179291) can0 1E199001#0000000000000000 R
(1708581295.179438) can0 1E19D001#0000000000000000 R
(1708581295.179589) can0 1E1A1001#0000000000000000 R
(1708581295.179730) can0 1E1A5001#0000000000000000 R
(1708581295.179872) can0 1E1A9001#0000000000000000 R
(1708581295.180027) can0 1E1AD001#0000000000000000 R
(1708581295.180171) can0 1E1B1001#0000000000000000 R
(1708581295.180321) can0 1E1B5001#0000000000000000 R
(1708581295.180463) can0 1E1B9001#0000000000000000 R
(1708581295.180611) can0 1E1BD001#0000000000000000 R
(1708581295.180761) can0 1E1C1001#0000000000000000 R
(1708581295.180908) can0 1E1C5001#0000000000000000 R
(1708581295.181053) can0 1E1C9001#0000000000000000 R
(1708581295.181201) can0 1E1CD001#0000000000000000 R
(1708581295.181344) can0 1E021001#42E9666C00000000 R
(1708581295.181484) can0 1E025001#BF8E81CD00000000 R
(1708581295.181629) can0 1E029001#42C8000000000000 R
(1708581295.181776) can0 1E02D001#0000000000000000 R
(1708581295.181920) can0 1E031001#0000000000000026 R
(1708581295.182106) can0 1E001001#00000000000216C4 R
(1708581295.182251) can0 1E005001#0000000000000020 R
(1708581295.182394) can0 1E009001#409E5B0E00000000 R
(1708581295.182548) can0 1E00D001#40001CCC00000000 R
(1708581295.182684) can0 1E011001#0000000000000000 R
(1708581295.182827) can0 1E015001#4147934E00000000 R
(1708581295.182976) can0 1E019001#41F0000000000002 R
(1708581295.183116) can0 1E01D001#42D21FE500000000 R
(1708581295.183258) can0 1E035001#0000000000000028 R
(1708581295.183407) can0 1E039001#410020E400000000 R
(1708581295.183550) can0 1E03D001#0000000000000000 R
(1708581295.183743) can0 1E041001#0000000000000000 R
(1708581295.183849) can0 1E045001#0000000000000000 R
(1708581295.183995) can0 1E049001#4170000000000000 R
(1708581295.184143) can0 1E04D001#000000000000002C R
(1708581295.184287) can0 1E051001#000000000000002C R
(1708581295.184434) can0 1E055001#000000000000002A R
(1708581295.184575) can0 1E059001#429F556800000000 R
(1708581295.184718) can0 1E05D001#42C40BB300000017 R
(1708581295.184863) can0 1E061001#3D8104D800000000 R
(1708581295.185004) can0 1E065001#42624D6100000000 R
(1708581295.185144) can0 1E069001#42926E5800000018 R
(1708581295.185286) can0 1E06D001#4143963900000000 R
(1708581295.185433) can0 1E071001#0000000000000000 R
(1708581295.185578) can0 1E075001#40A5431F00000000 R
(1708581295.185726) can0 1E079001#0000000000000011 R
(1708581295.185874) can0 1E07D001#000000000000002A R
(1708581295.186025) can0 1E081001#0000000000000000 R
(1708581295.186170) can0 1E085001#0000000000000000 R
(1708581295.186318) can0 1E089001#000000000000002A R
(1708581295.186469) can0 1E08D001#000000000000002A R
(1708581295.186610) can0 1E091001#3F80000000000031 R
(1708581295.186753) can0 1E095001#3F80000000000032 R
(1708581295.186902) can0 1E099001#0000000000000000 R
(1708581295.187043) can0 1E09D001#42B4059A00000000 R
(1708581295.187188) can0 1E0A1001#417DB64500000000 R
(1708581295.187326) can0 1E0A5001#4159626D00000000 R
(1708581295.187473) can0 1E0A9001#4020000000000000 R
(1708581295.187616) can0 1E0AD001#40349CF000000000 R
(1708581295.187765) can0 1E0B1001#0000000000000000 R
(1708581295.187912) can0 1E0B5001#0000000000000000 R
(1708581295.188061) can0 1E0B9001#0000000000000000 R
(1708581295.188211) can0 1E0BD001#0000000000000000 R
(1708581295.188361) can0 1E0C1001#0000000000000000 R
(1708581295.188510) can0 1E0C5001#0000000000000000 R
(1708581295.188656) can0 1E0C9001#0000000000000000 R
(1708581295.188806) can0 1E0CD001#0000000000000000 R
(1708581295.188956) can0 1E0D1001#0000000000000000 R
(1708581295.189103) can0 1E0D5001#0000000000000000 R
(1708581295.189248) can0 1E0D9001#41001E1100000000 R
(1708581295.189396) can0 1E0DD001#0000000000000000 R
(1708581295.189544) can0 1E0E1001#409E644200000000 R
(1708581295.189690) can0 1E0E5001#0000000000000000 R
(1708581295.189833) can0 1E0E9001#BEF7702000000000 R
(1708581295.189985) can0 1E0ED001#0000000000000000 R
(1708581295.190136) can0 1E0F5001#0000000000000000 R
(1708581295.190283) can0 1E0F9001#0000000000000000 R
(1708581295.190434) can0 1E0FD001#0000000000000000 R
(1708581295.190590) can0 1E101001#0000000000000000 R
(1708581295.190730) can0 1E105001#0000000000000000 R
(1708581295.190878) can0 1E0F1001#0000000000000000 R
(1708581295.191035) can0 1E109001#0000000000000000 R
(1708581295.191172) can0 1E10D001#0000000000000000 R
(1708581295.191321) can0 1E111001#0000000000000000 R
(1708581295.191464) can0 1E115001#0000000000000000 R
(1708581295.191616) can0 1E119001#0000000000000000 R
(1708581295.191758) can0 1E11D001#0000000000000000 R
(1708581295.191903) can0 1E121001#0000000000000000 R
(1708581295.192054) can0 1E125001#0000000000000000 R
(1708581295.192196) can0 1E129001#0000000000000000 R
(1708581295.192345) can0 1E12D001#0000000000000000 R
(1708581295.192494) can0 1E131001#0000000000000000 R
(1708581295.192638) can0 1E135001#0000000000000000 R
(1708581295.192778) can0 1E139001#4974240000000000 R
(1708581295.192926) can0 1E13D001#0000000000000000 R
(1708581295.193080) can0 1E141001#0000000000000000 R
(1708581295.193229) can0 1E145001#0000000000000000 R
(1708581295.193367) can0 1E149001#3F80000000000000 R
(1708581295.193508) can0 1E14D001#0000000000000000 R
(1708581295.193665) can0 1E151001#0000000000000000 R
(1708581295.193811) can0 1E155001#0000000000000000 R
(1708581295.193960) can0 1E159001#0000000000000000 R
(1708581295.194111) can0 1E15D001#40C0000000000000 R
(1708581295.194270) can0 1E161001#4190000000000000 R
(1708581295.194414) can0 1E165001#0000000000000000 R
(1708581295.194541) can0 1E169001#0000000000000000 R
(1708581295.194685) can0 1E16D001#0000000000000000 R
(1708581295.194877) can0 1E171001#0000000000000000 R
(1708581295.194984) can0 1E175001#0000000000000000 R
(1708581295.195129) can0 1E17D001#0000000000000000 R
(1708581295.195297) can0 1E181001#0000000000000000 R
(1708581295.195437) can0 1E185001#0000000000000000 R
(1708581295.195575) can0 1E189001#000000000000002A R
(1708581295.195720) can0 1E18D001#0000000000000000 R
(1708581295.195858) can0 1E191001#0000000000000000 R
(1708581295.196004) can0 1E179001#0000000000000000 R
(1708581295.196153) can0 1E195001#0000000000000000 R
(1708581295.196302) can0 1E199001#0000000000000000 R
(1708581295.196451) can0 1E19D001#0000000000000000 R
(1708581295.196596) can0 1E1A1001#0000000000000000 R
(1708581295.196738) can0 1E1A5001#0000000000000000 R
(1708581295.196886) can0 1E1A9001#0000000000000000 R
(1708581295.197028) can0 1E1AD001#0000000000000000 R
(1708581295.197177) can0 1E1B1001#0000000000000000 R
(1708581295.197325) can0 1E1B5001#0000000000000000 R
(1708581295.197477) can0 1E1B9001#0000000000000000 R
(1708581295.197647) can0 1E1BD001#0000000000000000 R
(1708581295.197773) can0 1E1C1001#0000000000000000 R
(1708581295.197918) can0 1E1C5001#0000000000000000 R
(1708581295.198062) can0 1E1C9001#0000000000000000 R
(1708581295.198213) can0 1E1CD001#0000000000000000 R
(1708581295.198350) can0 1E021001#42E9645500000000 R
(1708581295.198490) can0 1E025001#BF8E78E000000000 R
(1708581295.198636) can0 1E029001#42C8000000000000 R
(1708581295.198784) can0 1E02D001#0000000000000000 R
(1708581295.198932) can0 1E031001#0000000000000026 R
(1708581295.199093) can0 1E001001#00000000000216D6 R
(1708581295.199244) can0 1E005001#0000000000000020 R
(1708581295.199385) can0 1E009001#409E648500000000 R
(1708581295.199530) can0 1E00D001#4000211000000000 R
(1708581295.199733) can0 1E011001#0000000000000000 R
(1708581295.199825) can0 1E015001#4147921E00000000 R
(1708581295.199968) can0 1E019001#41F0000000000002 R
(1708581295.200110) can0 1E01D001#42D21D9400000000 R
(1708581295.200255) can0 1E035001#0000000000000028 R
(1708581295.200399) can0 1E039001#4100211000000000 R
(1708581295.200550) can0 1E03D001#0000000000000000 R
(1708581295.200697) can0 1E041001#0000000000000000 R
(1708581295.200846) can0 1E045001#0000000000000000 R
(1708581295.200993) can0 1E049001#4170000000000000 R
(1708581295.201139) can0 1E04D001#000000000000002C R
(1708581295.201289) can0 1E051001#000000000000002C R
(1708581295.201431) can0 1E055001#000000000000002A R
(1708581295.201575) can0 1E059001#429F53F300000000 R
(1708581295.201714) can0 1E05D001#42C40BC900000017 R
(1708581295.201859) can0 1E061001#3D632BA800000000 R
(1708581295.202001) can0 1E065001#426255A800000000 R
(1708581295.202139) can0 1E069001#42926B6300000018 R
(1708581295.202281) can0 1E06D001#41438C8E00000000 R
(1708581295.202431) can0 1E071001#0000000000000000 R
(1708581295.202573) can0 1E075001#40A6089D00000000 R
(1708581295.202724) can0 1E079001#0000000000000011 R
(1708581295.202867) can0 1E07D001#000000000000002A R
(1708581295.203014) can0 1E081001#0000000000000000 R
(1708581295.203164) can0 1E085001#0000000000000000 R
(1708581295.203309) can0 1E089001#000000000000002A R
(1708581295.203458) can0 1E08D001#000000000000002A R
(1708581295.203604) can0 1E091001#3F80000000000031 R
(1708581295.203749) can0 1E095001#3F80000000000032 R
(1708581295.203897) can0 1E099001#0000000000000000 R
(1708581295.204037) can0 1E09D001#42B4059E00000000 R
(1708581295.204180) can0 1E0A1001#417DB64500000000 R
(1708581295.204321) can0 1E0A5001#4159626200000000 R
(1708581295.204466) can0 1E0A9001#4020000000000000 R
(1708581295.204609) can0 1E0AD001#40349FDE00000000 R
(1708581295.204760) can0 1E0B1001#0000000000000000 R
(1708581295.204905) can0 1E0B5001#0000000000000000 R
(1708581295.205056) can0 1E0B9001#0000000000000000 R
(1708581295.205203) can0 1E0BD001#0000000000000000 R
(1708581295.205354) can0 1E0C1001#0000000000000000 R
(1708581295.205505) can0 1E0C5001#0000000000000000 R
(1708581295.205652) can0 1E0C9001#0000000000000000 R
(1708581295.205807) can0 1E0CD001#0000000000000000 R
(1708581295.205954) can0 1E0D1001#0000000000000000 R
(1708581295.206108) can0 1E0D5001#0000000000000000 R
(1708581295.206249) can0 1E0D9001#410023F200000000 R
(1708581295.206398) can0 1E0DD001#0000000000000000 R
(1708581295.206541) can0 1E0E1001#409E652300000000 R
(1708581295.206688) can0 1E0E5001#0000000000000000 R
(1708581295.206838) can0 1E0E9001#BEF826C000000000 R
(1708581295.206983) can0 1E0ED001#0000000000000000 R
(1708581295.207144) can0 1E0F5001#0000000000000000 R
(1708581295.207283) can0 1E0F9001#0000000000000000 R
(1708581295.207431) can0 1E0FD001#0000000000000000 R
(1708581295.207578) can0 1E101001#0000000000000000 R
(1708581295.207747) can0 1E105001#0000000000000000 R
(1708581295.207874) can0 1E0F1001#0000000000000000 R
(1708581295.208019) can0 1E109001#0000000000000000 R
(1708581295.208169) can0 1E10D001#0000000000000000 R
(1708581295.208316) can0 1E111001#0000000000000000 R
(1708581295.208462) can0 1E115001#0000000000000000 R
(1708581295.208647) can0 1E119001#0000000000000000 R
(1708581295.208756) can0 1E11D001#0000000000000000 R
(1708581295.208901) can0 1E121001#0000000000000000 R
(1708581295.209044) can0 1E125001#0000000000000000 R
(1708581295.209201) can0 1E129001#0000000000000000 R
(1708581295.209339) can0 1E12D001#0000000000000000 R
(1708581295.209489) can0 1E131001#0000000000000000 R
(1708581295.209635) can0 1E135001#0000000000000000 R
(1708581295.209775) can0 1E139001#4974240000000000 R
(1708581295.209929) can0 1E13D001#0000000000000000 R
(1708581295.210073) can0 1E141001#0000000000000000 R
(1708581295.210229) can0 1E145001#0000000000000000 R
(1708581295.210378) can0 1E149001#3F80000000000000 R
(1708581295.210533) can0 1E14D001#0000000000000000 R
(1708581295.210667) can0 1E151001#0000000000000000 R
(1708581295.210838) can0 1E155001#0000000000000000 R
(1708581295.210959) can0 1E159001#0000000000000000 R
(1708581295.211141) can0 1E15D001#40C0000000000000 R
(1708581295.211244) can0 1E161001#4190000000000000 R
(1708581295.211404) can0 1E165001#0000000000000000 R
(1708581295.211535) can0 1E169001#0000000000000000 R
(1708581295.211723) can0 1E16D001#0000000000000000 R
(1708581295.211834) can0 1E171001#0000000000000000 R
(1708581295.211970) can0 1E175001#0000000000000000 R
(1708581295.212114) can0 1E179001#0000000000000000 R
(1708581295.212268) can0 1E17D001#0000000000000000 R
(1708581295.212408) can0 1E181001#0000000000000000 R
(1708581295.212560) can0 1E185001#0000000000000000 R
(1708581295.212702) can0 1E189001#000000000000002A R
(1708581295.212854) can0 1E18D001#0000000000000000 R
(1708581295.213003) can0 1E191001#0000000000000000 R
(1708581295.213141) can0 1E195001#0000000000000000 R
(1708581295.213290) can0 1E199001#0000000000000000 R
(1708581295.213438) can0 1E19D001#0000000000000000 R
(1708581295.213592) can0 1E1A1001#0000000000000000 R
(1708581295.213731) can0 1E1A5001#0000000000000000 R
(1708581295.213882) can0 1E1A9001#0000000000000000 R
(1708581295.214028) can0 1E1AD001#0000000000000000 R
(1708581295.214181) can0 1E1B1001#0000000000000000 R
(1708581295.214321) can0 1E1B5001#0000000000000000 R
(1708581295.214484) can0 1E1B9001#0000000000000000 R
(1708581295.214620) can0 1E1BD001#0000000000000000 R
(1708581295.214769) can0 1E1C1001#0000000000000000 R
(1708581295.214914) can0 1E1C5001#0000000000000000 R
(1708581295.215076) can0 1E1C9001#0000000000000000 R
(1708581295.215213) can0 1E1CD001#0000000000000000 R
(1708581295.215373) can0 1E021001#42E9668E00000000 R
(1708581295.215493) can0 1E025001#BF8E825C00000000 R
(1708581295.215635) can0 1E029001#42C8000000000000 R
(1708581295.215793) can0 1E02D001#0000000000000000 R
(1708581295.215935) can0 1E031001#0000000000000026 R
(1708581295.216109) can0 1E001001#00000000000216E6 R
(1708581295.216262) can0 1E005001#0000000000000020 R
(1708581295.216392) can0 1E009001#409E5C1000000000 R
(1708581295.216542) can0 1E00D001#40001B1200000000 R
(1708581295.216680) can0 1E011001#0000000000000000 R
(1708581295.216832) can0 1E015001#414793D100000000 R
(1708581295.216980) can0 1E019001#41F0000000000002 R
(1708581295.217121) can0 1E01D001#42D21DE100000000 R
(1708581295.217260) can0 1E035001#0000000000000028 R
(1708581295.217403) can0 1E039001#41001F4000000000 R
(1708581295.217626) can0 1E03D001#0000000000000000 R
(1708581295.217682) can0 1E041001#BCD6B90000000000 R
(1708581295.217841) can0 1E045001#0000000000000000 R
(1708581295.217984) can0 1E049001#4170000000000000 R
(1708581295.218134) can0 1E04D001#000000000000002C R
(1708581295.218278) can0 1E051001#000000000000002C R
(1708581295.218434) can0 1E055001#000000000000002A R
(1708581295.218565) can0 1E059001#429F547500000000 R
(1708581295.218711) can0 1E05D001#42C4073300000017 R
(1708581295.218852) can0 1E061001#3D30789200000000 R
(1708581295.218991) can0 1E065001#426231A900000000 R
(1708581295.219132) can0 1E069001#42924FDA00000018 R
(1708581295.219273) can0 1E06D001#4143990E00000000 R
(1708581295.219422) can0 1E071001#0000000000000000 R
(1708581295.219570) can0 1E075001#40A5BB8000000000 R
(1708581295.219730) can0 1E079001#0000000000000011 R
(1708581295.219862) can0 1E07D001#000000000000002A R
(1708581295.220011) can0 1E081001#0000000000000000 R
(1708581295.220156) can0 1E085001#0000000000000000 R
(1708581295.220307) can0 1E089001#000000000000002A R
(1708581295.220450) can0 1E08D001#000000000000002A R
(1708581295.220599) can0 1E091001#3F80000000000031 R
(1708581295.220743) can0 1E095001#3F80000000000032 R
(1708581295.220889) can0 1E099001#0000000000000000 R
(1708581295.221034) can0 1E09D001#42B4058100000000 R
(1708581295.221174) can0 1E0A1001#417DB64500000000 R
(1708581295.221317) can0 1E0A5001#4159627500000000 R
(1708581295.221466) can0 1E0A9001#4020000000000000 R
(1708581295.221611) can0 1E0AD001#40349FDE00000000 R
(1708581295.221758) can0 1E0B1001#0000000000000000 R
(1708581295.221900) can0 1E0B5001#0000000000000000 R
(1708581295.222055) can0 1E0B9001#0000000000000000 R
(1708581295.222201) can0 1E0BD001#0000000000000000 R
(1708581295.222352) can0 1E0C1001#0000000000000000 R
(1708581295.222500) can0 1E0C5001#0000000000000000 R
(1708581295.222650) can0 1E0C9001#0000000000000000 R
(1708581295.222800) can0 1E0CD001#0000000000000000 R
(1708581295.222950) can0 1E0D1001#0000000000000000 R
(1708581295.223098) can0 1E0D5001#0000000000000000 R
(1708581295.223243) can0 1E0D9001#4100209000000000 R
(1708581295.223394) can0 1E0DD001#0000000000000000 R
(1708581295.223532) can0 1E0E1001#409E60E300000000 R
(1708581295.223703) can0 1E0E5001#0000000000000000 R
(1708581295.223831) can0 1E0E9001#BEF70FE000000000 R
(1708581295.223981) can0 1E0ED001#0000000000000000 R
(1708581295.224133) can0 1E0F5001#0000000000000000 R
(1708581295.224281) can0 1E0F9001#0000000000000000 R
(1708581295.224430) can0 1E0FD001#0000000000000000 R
(1708581295.224586) can0 1E101001#0000000000000000 R
(1708581295.224721) can0 1E105001#0000000000000000 R
(1708581295.224869) can0 1E0F1001#0000000000000000 R
(1708581295.225017) can0 1E109001#0000000000000000 R
(1708581295.225163) can0 1E10D001#0000000000000000 R
(1708581295.225310) can0 1E111001#0000000000000000 R
(1708581295.225455) can0 1E115001#0000000000000000 R
(1708581295.225609) can0 1E119001#0000000000000000 R
(1708581295.225756) can0 1E11D001#0000000000000000 R
(1708581295.225904) can0 1E121001#0000000000000000 R
(1708581295.226051) can0 1E125001#0000000000000000 R
(1708581295.226209) can0 1E129001#0000000000000000 R
(1708581295.226341) can0 1E12D001#0000000000000000 R
(1708581295.226493) can0 1E131001#0000000000000000 R
(1708581295.226636) can0 1E135001#0000000000000000 R
(1708581295.226772) can0 1E139001#4974240000000000 R
(1708581295.226931) can0 1E13D001#0000000000000000 R
(1708581295.227080) can0 1E141001#0000000000000000 R
(1708581295.227250) can0 1E145001#0000000000000000 R
(1708581295.227371) can0 1E149001#3F80000000000000 R
(1708581295.227508) can0 1E14D001#0000000000000000 R
(1708581295.227714) can0 1E151001#0000000000000000 R
(1708581295.227801) can0 1E155001#0000000000000000 R
(1708581295.228002) can0 1E159001#0000000000000000 R
(1708581295.228090) can0 1E15D001#40C0000000000000 R
(1708581295.228237) can0 1E161001#4190000000000000 R
(1708581295.228383) can0 1E165001#0000000000000000 R
(1708581295.228524) can0 1E169001#0000000000000000 R
(1708581295.228671) can0 1E16D001#0000000000000000 R
(1708581295.228821) can0 1E171001#0000000000000000 R
(1708581295.228974) can0 1E175001#0000000000000000 R
(1708581295.229122) can0 1E179001#0000000000000000 R
(1708581295.229272) can0 1E17D001#0000000000000000 R
(1708581295.229411) can0 1E181001#0000000000000000 R
(1708581295.229557) can0 1E185001#0000000000000000 R
(1708581295.229736) can0 1E189001#000000000000002A R
(1708581295.229851) can0 1E18D001#0000000000000000 R
(1708581295.229997) can0 1E191001#0000000000000000 R
(1708581295.230147) can0 1E195001#0000000000000000 R
(1708581295.230292) can0 1E199001#0000000000000000 R
(1708581295.230446) can0 1E19D001#0000000000000000 R
(1708581295.230585) can0 1E1A1001#0000000000000000 R
(1708581295.230733) can0 1E1A5001#0000000000000000 R
(1708581295.230877) can0 1E1A9001#0000000000000000 R
(1708581295.231025) can0 1E1AD001#0000000000000000 R
(1708581295.231172) can0 1E1B1001#0000000000000000 R
(1708581295.231320) can0 1E1B5001#0000000000000000 R
(1708581295.231466) can0 1E1B9001#0000000000000000 R
(1708581295.231617) can0 1E1BD001#0000000000000000 R
(1708581295.231777) can0 1E1C1001#0000000000000000 R
(1708581295.231914) can0 1E1C5001#0000000000000000 R
(1708581295.232062) can0 1E1C9001#0000000000000000 R
(1708581295.232209) can0 1E1CD001#0000000000000000 R
(1708581295.232358) can0 1E021001#42E9636E00000000 R
(1708581295.232494) can0 1E025001#BF8E750A00000000 R
(1708581295.232638) can0 1E029001#42C8000000000000 R
(1708581295.232794) can0 1E02D001#0000000000000000 R
(1708581295.232980) can0 1E031001#0000000000000026 R
(1708581295.233107) can0 1E001001#00000000000216F8 R
(1708581295.233250) can0 1E005001#0000000000000020 R
(1708581295.233392) can0 1E009001#409E609300000000 R
(1708581295.233531) can0 1E00D001#40001D2F00000000 R
(1708581295.233678) can0 1E011001#0000000000000000 R
(1708581295.233820) can0 1E015001#4147933200000000 R
(1708581295.233975) can0 1E019001#41F0000000000002 R
(1708581295.234110) can0 1E01D001#42D21DBB00000000 R
(1708581295.234254) can0 1E035001#0000000000000028 R
(1708581295.234399) can0 1E039001#41001D2F00000000 R
(1708581295.234548) can0 1E03D001#0000000000000000 R
(1708581295.234696) can0 1E041001#0000000000000000 R
(1708581295.234844) can0 1E045001#0000000000000000 R
(1708581295.234988) can0 1E049001#4170000000000000 R
(1708581295.235139) can0 1E04D001#000000000000002C R
(1708581295.235282) can0 1E051001#000000000000002C R
(1708581295.235430) can0 1E055001#000000000000002A R
(1708581295.235571) can0 1E059001#429F5B5F00000000 R
(1708581295.235717) can0 1E05D001#42C40B0800000017 R
(1708581295.235863) can0 1E061001#3DAFFEBF00000000 R
(1708581295.236001) can0 1E065001#426262F100000000 R
(1708581295.236144) can0 1E069001#429250AA00000018 R
(1708581295.236287) can0 1E06D001#4143A36400000000 R
(1708581295.236434) can0 1E071001#0000000000000000 R
(1708581295.236576) can0 1E075001#40A5D9F300000000 R
(1708581295.236724) can0 1E079001#0000000000000011 R
(1708581295.236870) can0 1E07D001#000000000000002A R
(1708581295.237020) can0 1E081001#0000000000000000 R
(1708581295.237166) can0 1E085001#0000000000000000 R
(1708581295.237315) can0 1E089001#000000000000002A R
(1708581295.237463) can0 1E08D001#000000000000002A R
(1708581295.237615) can0 1E091001#3F80000000000031 R
(1708581295.237751) can0 1E095001#3F80000000000032 R
(1708581295.237900) can0 1E099001#0000000000000000 R
(1708581295.238039) can0 1E09D001#42B4058E00000000 R
(1708581295.238183) can0 1E0A1001#417DB64500000000 R
(1708581295.238324) can0 1E0A5001#4159626400000000 R
(1708581295.238472) can0 1E0A9001#4020000000000000 R
(1708581295.238612) can0 1E0AD001#40349E7B00000000 R
(1708581295.238762) can0 1E0B1001#0000000000000000 R
(1708581295.238918) can0 1E0B5001#0000000000000000 R
(1708581295.239063) can0 1E0B9001#0000000000000000 R
(1708581295.239212) can0 1E0BD001#0000000000000000 R
(1708581295.239362) can0 1E0C1001#0000000000000000 R
(1708581295.239507) can0 1E0C5001#0000000000000000 R
(1708581295.239705) can0 1E0C9001#0000000000000000 R
(1708581295.239810) can0 1E0CD001#0000000000000000 R
(1708581295.239954) can0 1E0D1001#0000000000000000 R
(1708581295.240104) can0 1E0D5001#0000000000000000 R
(1708581295.240252) can0 1E0D9001#410024FA00000000 R
(1708581295.240399) can0 1E0DD001#0000000000000000 R
(1708581295.240543) can0 1E0E1001#409E60C400000000 R
(1708581295.240700) can0 1E0E5001#0000000000000000 R
(1708581295.240856) can0 1E0E9001#BEF71B2000000000 R
(1708581295.240990) can0 1E0ED001#0000000000000000 R
(1708581295.241134) can0 1E0F5001#0000000000000000 R
(1708581295.241286) can0 1E0F9001#0000000000000000 R
(1708581295.241434) can0 1E0FD001#0000000000000000 R
(1708581295.241583) can0 1E101001#0000000000000000 R
(1708581295.241725) can0 1E105001#0000000000000000 R
(1708581295.241878) can0 1E0F1001#0000000000000000 R
(1708581295.242021) can0 1E109001#0000000000000000 R
(1708581295.242166) can0 1E10D001#0000000000000000 R
(1708581295.242312) can0 1E111001#0000000000000000 R
(1708581295.242458) can0 1E115001#0000000000000000 R
(1708581295.242603) can0 1E119001#0000000000000000 R
(1708581295.242752) can0 1E11D001#0000000000000000 R
(1708581295.242896) can0 1E121001#0000000000000000 R
(1708581295.243048) can0 1E125001#0000000000000000 R
(1708581295.243194) can0 1E129001#0000000000000000 R
(1708581295.243349) can0 1E12D001#0000000000000000 R
(1708581295.243494) can0 1E131001#0000000000000000 R
(1708581295.243635) can0 1E135001#0000000000000000 R
(1708581295.243753) can0 1E139001#4974240000000000 R
(1708581295.243930) can0 1E13D001#0000000000000000 R
(1708581295.244071) can0 1E141001#0000000000000000 R
(1708581295.244217) can0 1E145001#0000000000000000 R
(1708581295.244387) can0 1E149001#3F80000000000000 R
(1708581295.244527) can0 1E14D001#0000000000000000 R
(1708581295.244682) can0 1E151001#0000000000000000 R
(1708581295.244836) can0 1E155001#0000000000000000 R
(1708581295.244954) can0 1E159001#0000000000000000 R
(1708581295.245134) can0 1E15D001#40C0000000000000 R
(1708581295.245251) can0 1E161001#4190000000000000 R
(1708581295.245409) can0 1E165001#0000000000000000 R
(1708581295.245556) can0 1E169001#0000000000000000 R
(1708581295.245660) can0 1E16D001#0000000000000000 R
(1708581295.245825) can0 1E171001#0000000000000000 R
(1708581295.245977) can0 1E175001#0000000000000000 R
(1708581295.246123) can0 1E17D001#0000000000000000 R
(1708581295.246271) can0 1E181001#0000000000000000 R
(1708581295.246416) can0 1E185001#0000000000000000 R
(1708581295.246560) can0 1E189001#000000000000002A R
(1708581295.246708) can0 1E18D001#0000000000000000 R
(1708581295.246858) can0 1E191001#0000000000000000 R
(1708581295.247003) can0 1E179001#0000000000000000 R
(1708581295.247147) can0 1E195001#0000000000000000 R
(1708581295.247297) can0 1E199001#0000000000000000 R
(1708581295.247442) can0 1E19D001#0000000000000000 R
(1708581295.247590) can0 1E1A1001#0000000000000000 R
(1708581295.247736) can0 1E1A5001#0000000000000000 R
(1708581295.247888) can0 1E1A9001#0000000000000000 R
(1708581295.248032) can0 1E1AD001#0000000000000000 R
(1708581295.248181) can0 1E1B1001#0000000000000000 R
(1708581295.248327) can0 1E1B5001#0000000000000000 R
(1708581295.248482) can0 1E1B9001#0000000000000000 R
(1708581295.248625) can0 1E1BD001#0000000000000000 R
(1708581295.248765) can0 1E1C1001#0000000000000000 R
(1708581295.248917) can0 1E1C5001#0000000000000000 R
(1708581295.249060) can0 1E1C9001#0000000000000000 R
(1708581295.249208) can0 1E1CD001#0000000000000000 R
(1708581295.249346) can0 1E021001#42E9648800000000 R
(1708581295.249495) can0 1E025001#BF8E79BC00000000 R
(1708581295.249643) can0 1E029001#42C8000000000000 R
(1708581295.249797) can0 1E02D001#0000000000000000 R
(1708581295.249936) can0 1E031001#0000000000000026 R
(1708581295.250110) can0 1E001001#0000000000021708 R
(1708581295.250246) can0 1E005001#0000000000000020 R
(1708581295.250393) can0 1E009001#409E5BDA00000000 R
(1708581295.250544) can0 1E00D001#4000202100000000 R
(1708581295.250686) can0 1E011001#0000000000000000 R
(1708581295.250825) can0 1E015001#4147926900000000 R
(1708581295.250969) can0 1E019001#41F0000000000002 R
(1708581295.251114) can0 1E01D001#42D21DD100000000 R
(1708581295.251258) can0 1E035001#0000000000000028 R
(1708581295.251411) can0 1E039001#4100217000000000 R
(1708581295.251555) can0 1E03D001#0000000000000000 R
(1708581295.251727) can0 1E041001#0000000000000000 R
(1708581295.251849) can0 1E045001#0000000000000000 R
(1708581295.251987) can0 1E049001#4170000000000000 R
(1708581295.252141) can0 1E04D001#000000000000002C R
(1708581295.252281) can0 1E051001#000000000000002C R
(1708581295.252428) can0 1E055001#000000000000002A R
(1708581295.252569) can0 1E059001#429F55B800000000 R
(1708581295.252717) can0 1E05D001#42C40B8100000017 R
(1708581295.252859) can0 1E061001#3D76485400000000 R
(1708581295.252995) can0 1E065001#42625CBF00000000 R
(1708581295.253140) can0 1E069001#429262AE00000018 R
(1708581295.253280) can0 1E06D001#41438C3900000000 R
(1708581295.253433) can0 1E071001#0000000000000000 R
(1708581295.253566) can0 1E075001#40A56CF100000000 R
(1708581295.253736) can0 1E079001#0000000000000011 R
(1708581295.253867) can0 1E07D001#000000000000002A R
(1708581295.254010) can0 1E081001#0000000000000000 R
(1708581295.254158) can0 1E085001#0000000000000000 R
(1708581295.254310) can0 1E089001#000000000000002A R
(1708581295.254452) can0 1E08D001#000000000000002A R
(1708581295.254605) can0 1E091001#3F80000000000031 R
(1708581295.254744) can0 1E095001#3F80000000000032 R
(1708581295.254897) can0 1E099001#0000000000000000 R
(1708581295.255035) can0 1E09D001#42B405C100000000 R
(1708581295.255176) can0 1E0A1001#417DB64500000000 R
(1708581295.255317) can0 1E0A5001#4159626800000000 R
(1708581295.255475) can0 1E0A9001#4020000000000000 R
(1708581295.255617) can0 1E0AD001#4034A47C00000000 R
(1708581295.255765) can0 1E0B1001#0000000000000000 R
(1708581295.255907) can0 1E0B5001#0000000000000000 R
(1708581295.256058) can0 1E0B9001#0000000000000000 R
(1708581295.256205) can0 1E0BD001#0000000000000000 R
(1708581295.256353) can0 1E0C1001#0000000000000000 R
(1708581295.256502) can0 1E0C5001#0000000000000000 R
(1708581295.256669) can0 1E0C9001#0000000000000000 R
(1708581295.256798) can0 1E0CD001#0000000000000000 R
(1708581295.256955) can0 1E0D1001#0000000000000000 R
(1708581295.257099) can0 1E0D5001#0000000000000000 R
(1708581295.257244) can0 1E0D9001#410024A300000000 R
(1708581295.257394) can0 1E0DD001#0000000000000000 R
(1708581295.257537) can0 1E0E1001#409E67D400000000 R
(1708581295.257685) can0 1E0E5001#0000000000000000 R
(1708581295.257838) can0 1E0E9001#BEF7748000000000 R
(1708581295.257980) can0 1E0ED001#0000000000000000 R
(1708581295.258125) can0 1E0F5001#0000000000000000 R
(1708581295.258278) can0 1E0F9001#0000000000000000 R
(1708581295.258423) can0 1E0FD001#0000000000000000 R
(1708581295.258569) can0 1E101001#0000000000000000 R
(1708581295.258720) can0 1E105001#0000000000000000 R
(1708581295.258870) can0 1E0F1001#0000000000000000 R
(1708581295.259022) can0 1E109001#0000000000000000 R
(1708581295.259166) can0 1E10D001#0000000000000000 R
(1708581295.259312) can0 1E111001#0000000000000000 R
(1708581295.259459) can0 1E115001#0000000000000000 R
(1708581295.259606) can0 1E119001#0000000000000000 R
(1708581295.259749) can0 1E11D001#0000000000000000 R
(1708581295.259895) can0 1E121001#0000000000000000 R
(1708581295.260043) can0 1E125001#0000000000000000 R
(1708581295.260193) can0 1E129001#0000000000000000 R
(1708581295.260348) can0 1E12D001#0000000000000000 R
(1708581295.260483) can0 1E131001#0000000000000000 R
(1708581295.260646) can0 1E135001#0000000000000000 R
(1708581295.260794) can0 1E139001#4974240000000000 R
(1708581295.260959) can0 1E13D001#0000000000000000 R
(1708581295.261073) can0 1E141001#0000000000000000 R
(1708581295.261213) can0 1E145001#0000000000000000 R
(1708581295.261353) can0 1E149001#3F80000000000000 R
(1708581295.261503) can0 1E14D001#0000000000000000 R
(1708581295.261656) can0 1E151001#0000000000000000 R
(1708581295.261797) can0 1E155001#0000000000000000 R
(1708581295.261946) can0 1E159001#0000000000000000 R
(1708581295.262086) can0 1E15D001#40C0000000000000 R
(1708581295.262231) can0 1E161001#4190000000000000 R
(1708581295.262376) can0 1E165001#0000000000000000 R
(1708581295.262520) can0 1E169001#0000000000000000 R
(1708581295.262671) can0 1E16D001#0000000000000000 R
(1708581295.262816) can0 1E171001#0000000000000000 R
(1708581295.262968) can0 1E175001#0000000000000000 R
(1708581295.263114) can0 1E179001#0000000000000000 R
(1708581295.263259) can0 1E17D001#0000000000000000 R
(1708581295.263408) can0 1E181001#0000000000000000 R
(1708581295.263556) can0 1E185001#0000000000000000 R
(1708581295.263726) can0 1E189001#000000000000002A R
(1708581295.263852) can0 1E18D001#0000000000000000 R
(1708581295.263992) can0 1E191001#0000000000000000 R
(1708581295.264138) can0 1E195001#0000000000000000 R
(1708581295.264290) can0 1E199001#0000000000000000 R
(1708581295.264431) can0 1E19D001#0000000000000000 R
(1708581295.264583) can0 1E1A1001#0000000000000000 R
(1708581295.264727) can0 1E1A5001#0000000000000000 R
(1708581295.264873) can0 1E1A9001#0000000000000000 R
(1708581295.265022) can0 1E1AD001#0000000000000000 R
(1708581295.265165) can0 1E1B1001#0000000000000000 R
(1708581295.265316) can0 1E1B5001#0000000000000000 R
(1708581295.265462) can0 1E1B9001#0000000000000000 R
(1708581295.265610) can0 1E1BD001#0000000000000000 R
(1708581295.265760) can0 1E1C1001#0000000000000000 R
(1708581295.265906) can0 1E1C5001#0000000000000000 R
(1708581295.266055) can0 1E1C9001#0000000000000000 R
(1708581295.266208) can0 1E1CD001#0000000000000000 R
(1708581295.266342) can0 1E021001#42E9661100000000 R
(1708581295.266483) can0 1E025001#BF8E804900000000 R
(1708581295.266629) can0 1E029001#42C8000000000000 R
(1708581295.266775) can0 1E02D001#0000000000000000 R
(1708581295.266926) can0 1E031001#0000000000000026 R
(1708581295.267091) can0 1E001001#000000000002171A R
(1708581295.267239) can0 1E005001#0000000000000020 R
(1708581295.267382) can0 1E009001#409E55DC00000000 R
(1708581295.267526) can0 1E00D001#40001A1100000000 R
(1708581295.267710) can0 1E011001#0000000000000000 R
(1708581295.267821) can0 1E015001#4147940000000000 R
(1708581295.267964) can0 1E019001#41F0000000000002 R
(1708581295.268103) can0 1E01D001#42D21EBC00000000 R
(1708581295.268251) can0 1E035001#0000000000000028 R
(1708581295.268393) can0 1E039001#41001A1100000000 R
(1708581295.268546) can0 1E03D001#0000000000000000 R
(1708581295.268692) can0 1E041001#0000000000000000 R
(1708581295.268843) can0 1E045001#0000000000000000 R
(1708581295.268982) can0 1E049001#4170000000000000 R
(1708581295.269134) can0 1E04D001#000000000000002C R
(1708581295.269281) can0 1E051001#000000000000002C R
(1708581295.269427) can0 1E055001#000000000000002A R
(1708581295.269570) can0 1E059001#429F593800000000 R
(1708581295.269711) can0 1E05D001#42C406B800000017 R
(1708581295.269856) can0 1E061001#3DA2D82700000000 R
(1708581295.270001) can0 1E065001#4262490200000000 R
(1708581295.270138) can0 1E069001#4292586A00000018 R
(1708581295.270286) can0 1E06D001#414399BA00000000 R
(1708581295.270425) can0 1E071001#0000000000000000 R
(1708581295.270574) can0 1E075001#40A566C500000000 R
(1708581295.270714) can0 1E079001#0000000000000011 R
(1708581295.270863) can0 1E07D001#000000000000002A R
(1708581295.271013) can0 1E081001#0000000000000000 R
(1708581295.271160) can0 1E085001#0000000000000000 R
(1708581295.271308) can0 1E089001#000000000000002A R
(1708581295.271461) can0 1E08D001#000000000000002A R
(1708581295.271600) can0 1E091001#3F80000000000031 R
(1708581295.271743) can0 1E095001#3F80000000000032 R
(1708581295.271893) can0 1E099001#0000000000000000 R
(1708581295.272031) can0 1E09D001#42B4056600000000 R
(1708581295.272180) can0 1E0A1001#417DB64500000000 R
(1708581295.272314) can0 1E0A5001#4159626900000000 R
(1708581295.272469) can0 1E0A9001#4020000000000000 R
(1708581295.272601) can0 1E0AD001#403499B600000000 R
(1708581295.272755) can0 1E0B1001#0000000000000000 R
(1708581295.272902) can0 1E0B5001#0000000000000000 R
(1708581295.273055) can0 1E0B9001#0000000000000000 R
(1708581295.273203) can0 1E0BD001#0000000000000000 R
(1708581295.273361) can0 1E0C1001#0000000000000000 R
(1708581295.273508) can0 1E0C5001#0000000000000000 R
(1708581295.273649) can0 1E0C9001#0000000000000000 R
(1708581295.273802) can0 1E0CD001#0000000000000000 R
(1708581295.273948) can0 1E0D1001#0000000000000000 R
(1708581295.274111) can0 1E0D5001#0000000000000000 R
(1708581295.274245) can0 1E0D9001#4100212E00000000 R
(1708581295.274388) can0 1E0DD001#0000000000000000 R
(1708581295.274533) can0 1E0E1001#409E63E700000000 R
(1708581295.274678) can0 1E0E5001#0000000000000000 R
(1708581295.274827) can0 1E0E9001#BEF71BE000000000 R
(1708581295.274971) can0 1E0ED001#0000000000000000 R
(1708581295.275122) can0 1E0F5001#0000000000000000 R
(1708581295.275270) can0 1E0F9001#0000000000000000 R
(1708581295.275422) can0 1E0FD001#0000000000000000 R
(1708581295.275567) can0 1E101001#0000000000000000 R
(1708581295.275724) can0 1E105001#0000000000000000 R
(1708581295.275865) can0 1E0F1001#0000000000000000 R
(1708581295.276011) can0 1E109001#0000000000000000 R
(1708581295.276158) can0 1E10D001#0000000000000000 R
(1708581295.276312) can0 1E111001#0000000000000000 R
(1708581295.276451) can0 1E115001#0000000000000000 R
(1708581295.276601) can0 1E119001#0000000000000000 R
(1708581295.276753) can0 1E11D001#0000000000000000 R
(1708581295.276897) can0 1E121001#0000000000000000 R
(1708581295.277036) can0 1E125001#0000000000000000 R
(1708581295.277187) can0 1E129001#0000000000000000 R
(1708581295.277334) can0 1E12D001#0000000000000000 R
(1708581295.277481) can0 1E131001#0000000000000000 R
(1708581295.277627) can0 1E135001#0000000000000000 R
(1708581295.277765) can0 1E139001#4974240000000000 R
(1708581295.277913) can0 1E13D001#0000000000000000 R
(1708581295.278076) can0 1E141001#0000000000000000 R
(1708581295.278212) can0 1E145001#0000000000000000 R
(1708581295.278361) can0 1E149001#3F80000000000000 R
(1708581295.278505) can0 1E14D001#0000000000000000 R
(1708581295.278653) can0 1E151001#0000000000000000 R
(1708581295.278799) can0 1E155001#0000000000000000 R
(1708581295.278949) can0 1E159001#0000000000000000 R
(1708581295.279087) can0 1E15D001#40C0000000000000 R
(1708581295.279237) can0 1E161001#4190000000000000 R
(1708581295.279386) can0 1E165001#0000000000000000 R
(1708581295.279525) can0 1E169001#0000000000000000 R
(1708581295.279728) can0 1E16D001#0000000000000000 R
(1708581295.279811) can0 1E171001#0000000000000000 R
(1708581295.279970) can0 1E175001#0000000000000000 R
(1708581295.280115) can0 1E179001#0000000000000000 R
(1708581295.280269) can0 1E17D001#0000000000000000 R
(1708581295.280411) can0 1E181001#0000000000000000 R
(1708581295.280558) can0 1E185001#0000000000000000 R
(1708581295.280706) can0 1E189001#000000000000002A R
(1708581295.280857) can0 1E18D001#0000000000000000 R
(1708581295.280998) can0 1E191001#0000000000000000 R
(1708581295.281143) can0 1E195001#0000000000000000 R
(1708581295.281296) can0 1E199001#0000000000000000 R
(1708581295.281440) can0 1E19D001#0000000000000000 R
(1708581295.281602) can0 1E1A1001#0000000000000000 R
(1708581295.281742) can0 1E1A5001#0000000000000000 R
(1708581295.281906) can0 1E1A9001#0000000000000000 R
(1708581295.282032) can0 1E1AD001#0000000000000000 R
(1708581295.282186) can0 1E1B1001#0000000000000000 R
(1708581295.282323) can0 1E1B5001#0000000000000000 R
(1708581295.282485) can0 1E1B9001#0000000000000000 R
(1708581295.282619) can0 1E1BD001#0000000000000000 R
(1708581295.282760) can0 1E1C1001#0000000000000000 R
(1708581295.282909) can0 1E1C5001#0000000000000000 R
(1708581295.283072) can0 1E1C9001#0000000000000000 R
(1708581295.283239) can0 1E1CD001#0000000000000000 R
(1708581295.283367) can0 1E021001#42E962E900000000 R
(1708581295.283500) can0 1E025001#BF8E72D000000000 R
(1708581295.283631) can0 1E029001#42C8000000000000 R
(1708581295.283775) can0 1E02D001#0000000000000000 R
(1708581295.283931) can0 1E031001#0000000000000026 R
(1708581295.284114) can0 1E001001#000000000002172A R
(1708581295.284246) can0 1E005001#0000000000000020 R
(1708581295.284399) can0 1E009001#409E5B2100000000 R
(1708581295.284542) can0 1E00D001#400018DF00000000 R
(1708581295.284704) can0 1E011001#0000000000000000 R
(1708581295.284846) can0 1E015001#4147946A00000000 R
(1708581295.284977) can0 1E019001#41F0000000000002 R
(1708581295.285122) can0 1E01D001#42D21E6000000000 R
(1708581295.285263) can0 1E035001#0000000000000028 R
(1708581295.285402) can0 1E039001#4100216800000000 R
(1708581295.285556) can0 1E03D001#0000000000000000 R
(1708581295.285704) can0 1E041001#0000000000000000 R
(1708581295.285845) can0 1E045001#0000000000000000 R
(1708581295.285991) can0 1E049001#4170000000000000 R
(1708581295.286137) can0 1E04D001#000000000000002C R
(1708581295.286283) can0 1E051001#000000000000002C R
(1708581295.286430) can0 1E055001#000000000000002A R
(1708581295.286569) can0 1E059001#429F55B400000000 R
(1708581295.286711) can0 1E05D001#42C408C200000017 R
(1708581295.286853) can0 1E061001#3DD187F900000000 R
(1708581295.286998) can0 1E065001#4262343E00000000 R
(1708581295.287137) can0 1E069001#4292672C00000018 R
(1708581295.287280) can0 1E06D001#4143933900000000 R
(1708581295.287427) can0 1E071001#0000000000000000 R
(1708581295.287571) can0 1E075001#40A4092E00000000 R
(1708581295.287734) can0 1E079001#0000000000000011 R
(1708581295.287866) can0 1E07D001#000000000000002A R
(1708581295.288013) can0 1E081001#0000000000000000 R
(1708581295.288162) can0 1E085001#0000000000000000 R
(1708581295.288309) can0 1E089001#000000000000002A R
(1708581295.288457) can0 1E08D001#000000000000002A R
(1708581295.288610) can0 1E091001#3F80000000000031 R
(1708581295.288747) can0 1E095001#3F80000000000032 R
(1708581295.288892) can0 1E099001#0000000000000000 R
(1708581295.289036) can0 1E09D001#42B4052A00000000 R
(1708581295.289176) can0 1E0A1001#417DB64500000000 R
(1708581295.289319) can0 1E0A5001#4159627100000000 R
(1708581295.289462) can0 1E0A9001#4020000000000000 R
(1708581295.289608) can0 1E0AD001#4034A76900000000 R
(1708581295.289756) can0 1E0B1001#0000000000000000 R
(1708581295.289908) can0 1E0B5001#0000000000000000 R
(1708581295.290057) can0 1E0B9001#0000000000000000 R
(1708581295.290206) can0 1E0BD001#0000000000000000 R
(1708581295.290354) can0 1E0C1001#0000000000000000 R
(1708581295.290509) can0 1E0C5001#0000000000000000 R
(1708581295.290652) can0 1E0C9001#0000000000000000 R
(1708581295.290806) can0 1E0CD001#0000000000000000 R
(1708581295.290952) can0 1E0D1001#0000000000000000 R
(1708581295.291102) can0 1E0D5001#0000000000000000 R
(1708581295.291249) can0 1E0D9001#4100193900000000 R
(1708581295.291392) can0 1E0DD001#0000000000000000 R
(1708581295.291538) can0 1E0E1001#409E592600000000 R
(1708581295.291734) can0 1E0E5001#0000000000000000 R
(1708581295.291835) can0 1E0E9001#BEF6AF4000000000 R
(1708581295.291991) can0 1E0ED001#0000000000000000 R
(1708581295.292129) can0 1E0F5001#0000000000000000 R
(1708581295.292274) can0 1E0F9001#0000000000000000 R
(1708581295.292423) can0 1E0FD001#0000000000000000 R
(1708581295.292571) can0 1E101001#0000000000000000 R
(1708581295.292718) can0 1E105001#0000000000000000 R
(1708581295.292869) can0 1E0F1001#0000000000000000 R
(1708581295.293014) can0 1E109001#0000000000000000 R
(1708581295.293166) can0 1E10D001#0000000000000000 R
(1708581295.293304) can0 1E111001#0000000000000000 R
(1708581295.293453) can0 1E115001#0000000000000000 R
(1708581295.293601) can0 1E119001#0000000000000000 R
(1708581295.293751) can0 1E11D001#0000000000000000 R
(1708581295.293901) can0 1E121001#0000000000000000 R
(1708581295.294039) can0 1E125001#0000000000000000 R
(1708581295.294186) can0 1E129001#0000000000000000 R
(1708581295.294331) can0 1E12D001#0000000000000000 R
(1708581295.294485) can0 1E131001#0000000000000000 R
(1708581295.294633) can0 1E135001#0000000000000000 R
(1708581295.294767) can0 1E139001#4974240000000000 R
(1708581295.294929) can0 1E13D001#0000000000000000 R
(1708581295.295076) can0 1E141001#0000000000000000 R
(1708581295.295246) can0 1E145001#0000000000000000 R
(1708581295.295369) can0 1E149001#3F80000000000000 R
(1708581295.295509) can0 1E14D001#0000000000000000 R
(1708581295.295711) can0 1E151001#0000000000000000 R
(1708581295.295802) can0 1E155001#0000000000000000 R
(1708581295.295955) can0 1E159001#0000000000000000 R
(1708581295.296095) can0 1E15D001#40C0000000000000 R
(1708581295.296232) can0 1E161001#4190000000000000 R
(1708581295.296376) can0 1E165001#0000000000000000 R
(1708581295.296530) can0 1E169001#0000000000000000 R
(1708581295.296668) can0 1E16D001#0000000000000000 R
(1708581295.296827) can0 1E171001#0000000000000000 R
(1708581295.296969) can0 1E175001#0000000000000000 R
(1708581295.297115) can0 1E179001#0000000000000000 R
(1708581295.297262) can0 1E17D001#0000000000000000 R
(1708581295.297410) can0 1E181001#0000000000000000 R
(1708581295.297557) can0 1E185001#0000000000000000 R
(1708581295.297702) can0 1E189001#000000000000002A R
(1708581295.297849) can0 1E18D001#0000000000000000 R
(1708581295.297988) can0 1E191001#0000000000000000 R
(1708581295.298138) can0 1E195001#0000000000000000 R
(1708581295.298283) can0 1E199001#0000000000000000 R
(1708581295.298430) can0 1E19D001#0000000000000000 R
(1708581295.298575) can0 1E1A1001#0000000000000000 R
(1708581295.298723) can0 1E1A5001#0000000000000000 R
(1708581295.298872) can0 1E1A9001#0000000000000000 R
(1708581295.299019) can0 1E1AD001#0000000000000000 R
(1708581295.299167) can0 1E1B1001#0000000000000000 R
(1708581295.299313) can0 1E1B5001#0000000000000000 R
(1708581295.299462) can0 1E1B9001#0000000000000000 R
(1708581295.299608) can0 1E1BD001#0000000000000000 R
(1708581295.299759) can0 1E1C1001#0000000000000000 R
(1708581295.299902) can0 1E1C5001#0000000000000000 R
(1708581295.300051) can0 1E1C9001#0000000000000000 R
(1708581295.300197) can0 1E1CD001#0000000000000000 R
(1708581295.300339) can0 1E021001#42E9624900000000 R
(1708581295.300484) can0 1E025001#BF8E702700000000 R
(1708581295.300626) can0 1E029001#42C8000000000000 R
(1708581295.300775) can0 1E02D001#0000000000000000 R
(1708581295.300920) can0 1E031001#0000000000000026 R
(1708581295.301093) can0 1E001001#000000000002173C R
(1708581295.301238) can0 1E005001#0000000000000020 R
(1708581295.301381) can0 1E009001#409E656600000000 R
(1708581295.301522) can0 1E00D001#4000229C00000000 R
(1708581295.301672) can0 1E011001#0000000000000000 R
(1708581295.301817) can0 1E015001#414791C000000000 R
(1708581295.301960) can0 1E019001#41F0000000000002 R
(1708581295.302102) can0 1E01D001#42D2207300000000 R
(1708581295.302252) can0 1E035001#0000000000000028 R
(1708581295.302394) can0 1E039001#4100229C00000000 R
(1708581295.302545) can0 1E03D001#0000000000000000 R
(1708581295.302695) can0 1E041001#0000000000000000 R
(1708581295.302840) can0 1E045001#0000000000000000 R
(1708581295.302984) can0 1E049001#4170000000000000 R
(1708581295.303137) can0 1E04D001#000000000000002C R
(1708581295.303278) can0 1E051001#000000000000002C R
(1708581295.303434) can0 1E055001#000000000000002A R
(1708581295.303566) can0 1E059001#429F569600000000 R
(1708581295.303725) can0 1E05D001#42C4078700000017 R
(1708581295.303851) can0 1E061001#3D8F765600000000 R
(1708581295.303993) can0 1E065001#42623B6500000000 R
(1708581295.304130) can0 1E069001#429261E300000018 R
(1708581295.304270) can0 1E06D001#4143976400000000 R
(1708581295.304431) can0 1E071001#0000000000000000 R
(1708581295.304561) can0 1E075001#40A52C4000000000 R
(1708581295.304710) can0 1E079001#0000000000000011 R
(1708581295.304858) can0 1E07D001#000000000000002A R
(1708581295.305006) can0 1E081001#0000000000000000 R
(1708581295.305155) can0 1E085001#0000000000000000 R
(1708581295.305301) can0 1E089001#000000000000002A R
(1708581295.305450) can0 1E08D001#000000000000002A R
(1708581295.305599) can0 1E091001#3F80000000000031 R
(1708581295.305742) can0 1E095001#3F80000000000032 R
(1708581295.305885) can0 1E099001#0000000000000000 R
(1708581295.306027) can0 1E09D001#42B4054F00000000 R
(1708581295.306170) can0 1E0A1001#417DB64500000000 R
(1708581295.306315) can0 1E0A5001#4159626C00000000 R
(1708581295.306459) can0 1E0A9001#4020000000000000 R
(1708581295.306604) can0 1E0AD001#4034A47C00000000 R
(1708581295.306753) can0 1E0B1001#0000000000000000 R
(1708581295.306902) can0 1E0B5001#0000000000000000 R
(1708581295.307055) can0 1E0B9001#0000000000000000 R
(1708581295.307211) can0 1E0BD001#0000000000000000 R
(1708581295.307357) can0 1E0C1001#0000000000000000 R
(1708581295.307504) can0 1E0C5001#0000000000000000 R
(1708581295.307653) can0 1E0C9001#0000000000000000 R
(1708581295.307800) can0 1E0CD001#0000000000000000 R
(1708581295.307951) can0 1E0D1001#0000000000000000 R
(1708581295.308097) can0 1E0D5001#0000000000000000 R
(1708581295.308247) can0 1E0D9001#4100202400000000 R
(1708581295.308397) can0 1E0DD001#0000000000000000 R
(1708581295.308537) can0 1E0E1001#409E616600000000 R
(1708581295.308682) can0 1E0E5001#0000000000000000 R
(1708581295.308837) can0 1E0E9001#BEF76FA000000000 R
(1708581295.308979) can0 1E0ED001#0000000000000000 R
(1708581295.309122) can0 1E0F5001#0000000000000000 R
(1708581295.309275) can0 1E0F9001#0000000000000000 R
(1708581295.309419) can0 1E0FD001#0000000000000000 R
(1708581295.309613) can0 1E101001#0000000000000000 R
(1708581295.309736) can0 1E105001#0000000000000000 R
(1708581295.309862) can0 1E0F1001#0000000000000000 R
(1708581295.310007) can0 1E109001#0000000000000000 R
(1708581295.310159) can0 1E10D001#0000000000000000 R
(1708581295.310302) can0 1E111001#0000000000000000 R
(1708581295.310452) can0 1E115001#0000000000000000 R
(1708581295.310600) can0 1E119001#0000000000000000 R
(1708581295.310762) can0 1E11D001#0000000000000000 R
(1708581295.310899) can0 1E121001#0000000000000000 R
(1708581295.311045) can0 1E125001#0000000000000000 R
(1708581295.311198) can0 1E129001#0000000000000000 R
(1708581295.311381) can0 1E12D001#0000000000000000 R
(1708581295.311481) can0 1E131001#0000000000000000 R
(1708581295.311637) can0 1E135001#0000000000000000 R
(1708581295.311763) can0 1E139001#4974240000000000 R
(1708581295.311910) can0 1E13D001#0000000000000000 R
(1708581295.312056) can0 1E141001#0000000000000000 R
(1708581295.312204) can0 1E145001#0000000000000000 R
(1708581295.312356) can0 1E149001#3F80000000000000 R
(1708581295.312497) can0 1E14D001#0000000000000000 R
(1708581295.312642) can0 1E151001#0000000000000000 R
(1708581295.312789) can0 1E155001#0000000000000000 R
(1708581295.312934) can0 1E159001#0000000000000000 R
(1708581295.313084) can0 1E15D001#40C0000000000000 R
(1708581295.313226) can0 1E161001#4190000000000000 R
(1708581295.313372) can0 1E165001#0000000000000000 R
(1708581295.313519) can0 1E169001#0000000000000000 R
(1708581295.313666) can0 1E16D001#0000000000000000 R
(1708581295.313815) can0 1E171001#0000000000000000 R
(1708581295.313967) can0 1E175001#0000000000000000 R
(1708581295.314110) can0 1E179001#0000000000000000 R
(1708581295.314255) can0 1E17D001#0000000000000000 R
(1708581295.314412) can0 1E181001#0000000000000000 R
(1708581295.314549) can0 1E185001#0000000000000000 R
(1708581295.314705) can0 1E189001#000000000000002A R
(1708581295.314841) can0 1E18D001#0000000000000000 R
(1708581295.314992) can0 1E191001#0000000000000000 R
(1708581295.315136) can0 1E195001#0000000000000000 R
(1708581295.315282) can0 1E199001#0000000000000000 R
(1708581295.315437) can0 1E19D001#0000000000000000 R
(1708581295.315578) can0 1E1A1001#0000000000000000 R
(1708581295.315727) can0 1E1A5001#0000000000000000 R
(1708581295.315876) can0 1E1A9001#0000000000000000 R
(1708581295.316021) can0 1E1AD001#0000000000000000 R
(1708581295.316167) can0 1E1B1001#0000000000000000 R
(1708581295.316325) can0 1E1B5001#0000000000000000 R
(1708581295.316463) can0 1E1B9001#0000000000000000 R
(1708581295.316612) can0 1E1BD001#0000000000000000 R
(1708581295.316756) can0 1E1C1001#0000000000000000 R
(1708581295.316905) can0 1E1C5001#0000000000000000 R
(1708581295.317050) can0 1E1C9001#0000000000000000 R
(1708581295.317198) can0 1E1CD001#0000000000000000 R
(1708581295.317344) can0 1E021001#42E9675C00000000 R
(1708581295.317485) can0 1E025001#BF8E85CB00000000 R
(1708581295.317630) can0 1E029001#42C8000000000000 R
(1708581295.317773) can0 1E02D001#0000000000000000 R
(1708581295.317921) can0 1E031001#0000000000000026 R
(1708581295.318091) can0 1E001001#000000000002174C R
(1708581295.318241) can0 1E005001#0000000000000020 R
(1708581295.318391) can0 1E009001#409E5CC400000000 R
(1708581295.318523) can0 1E00D001#400018D700000000 R
(1708581295.318683) can0 1E011001#0000000000000000 R
(1708581295.318815) can0 1E015001#4147946800000000 R
(1708581295.318967) can0 1E019001#41F0000000000002 R
(1708581295.319106) can0 1E01D001#42D21D4400000000 R
(1708581295.319252) can0 1E035001#0000000000000028 R
(1708581295.319398) can0 1E039001#410021C800000000 R
(1708581295.319553) can0 1E03D001#0000000000000000 R
(1708581295.319716) can0 1E041001#0000000000000000 R
(1708581295.319857) can0 1E045001#0000000000000000 R
(1708581295.319996) can0 1E049001#4170000000000000 R
(1708581295.320142) can0 1E04D001#000000000000002C R
(1708581295.320296) can0 1E051001#000000000000002C R
(1708581295.320434) can0 1E055001#000000000000002A R
(1708581295.320578) can0 1E059001#429F55EC00000000 R
(1708581295.320717) can0 1E05D001#42C40D4400000017 R
(1708581295.320871) can0 1E061001#3D6F638B00000000 R
(1708581295.321006) can0 1E065001#426257FA00000000 R
(1708581295.321154) can0 1E069001#429276E000000018 R
(1708581295.321291) can0 1E06D001#4143926400000000 R
(1708581295.321451) can0 1E071001#0000000000000000 R
(1708581295.321584) can0 1E075001#40A59A2C00000000 R
(1708581295.321732) can0 1E079001#0000000000000011 R
(1708581295.321872) can0 1E07D001#000000000000002A R
(1708581295.322019) can0 1E081001#0000000000000000 R
(1708581295.322168) can0 1E085001#0000000000000000 R
(1708581295.322312) can0 1E089001#000000000000002A R
(1708581295.322462) can0 1E08D001#000000000000002A R
(1708581295.322609) can0 1E091001#3F80000000000031 R
(1708581295.322757) can0 1E095001#3F80000000000032 R
(1708581295.322905) can0 1E099001#0000000000000000 R
(1708581295.323045) can0 1E09D001#42B4057F00000000 R
(1708581295.323185) can0 1E0A1001#417DB64500000000 R
(1708581295.323331) can0 1E0A5001#4159626400000000 R
(1708581295.323471) can0 1E0A9001#4020000000000000 R
(1708581295.323617) can0 1E0AD001#40349E0400000000 R
(1708581295.323767) can0 1E0B1001#0000000000000000 R
(1708581295.323911) can0 1E0B5001#0000000000000000 R
(1708581295.324063) can0 1E0B9001#0000000000000000 R
(1708581295.324215) can0 1E0BD001#0000000000000000 R
(1708581295.324370) can0 1E0C1001#0000000000000000 R
(1708581295.324510) can0 1E0C5001#0000000000000000 R
(1708581295.324659) can0 1E0C9001#0000000000000000 R
(1708581295.324805) can0 1E0CD001#0000000000000000 R
(1708581295.324965) can0 1E0D1001#0000000000000000 R
(1708581295.325105) can0 1E0D5001#0000000000000000 R
(1708581295.325248) can0 1E0D9001#41001E0100000000 R
(1708581295.325404) can0 1E0DD001#0000000000000000 R
(1708581295.325542) can0 1E0E1001#409E64DD00000000 R
(1708581295.325688) can0 1E0E5001#0000000000000000 R
(1708581295.325852) can0 1E0E9001#BEF7410000000000 R
(1708581295.325993) can0 1E0ED001#0000000000000000 R
(1708581295.326139) can0 1E0F5001#0000000000000000 R
(1708581295.326292) can0 1E0F9001#0000000000000000 R
(1708581295.326431) can0 1E0FD001#0000000000000000 R
(1708581295.326580) can0 1E101001#0000000000000000 R
(1708581295.326727) can0 1E105001#0000000000000000 R
(1708581295.326889) can0 1E0F1001#0000000000000000 R
(1708581295.327030) can0 1E109001#0000000000000000 R
(1708581295.327167) can0 1E10D001#0000000000000000 R
(1708581295.327322) can0 1E111001#0000000000000000 R
(1708581295.327459) can0 1E115001#0000000000000000 R
(1708581295.327609) can0 1E119001#0000000000000000 R
(1708581295.327768) can0 1E11D001#0000000000000000 R
(1708581295.327902) can0 1E121001#0000000000000000 R
(1708581295.328045) can0 1E125001#0000000000000000 R
(1708581295.328198) can0 1E129001#0000000000000000 R
(1708581295.328343) can0 1E12D001#0000000000000000 R
(1708581295.328491) can0 1E131001#0000000000000000 R
(1708581295.328638) can0 1E135001#0000000000000000 R
(1708581295.328775) can0 1E139001#4974240000000000 R
(1708581295.328927) can0 1E13D001#0000000000000000 R
(1708581295.329071) can0 1E141001#0000000000000000 R
(1708581295.329235) can0 1E145001#0000000000000000 R
(1708581295.329365) can0 1E149001#3F80000000000000 R
(1708581295.329517) can0 1E14D001#0000000000000000 R
(1708581295.329667) can0 1E151001#0000000000000000 R
(1708581295.329805) can0 1E155001#0000000000000000 R
(1708581295.329957) can0 1E159001#0000000000000000 R
(1708581295.330099) can0 1E15D001#40C0000000000000 R
(1708581295.330265) can0 1E161001#4190000000000000 R
(1708581295.330406) can0 1E165001#0000000000000000 R
(1708581295.330549) can0 1E169001#0000000000000000 R
(1708581295.330697) can0 1E16D001#0000000000000000 R
(1708581295.330840) can0 1E171001#0000000000000000 R
(1708581295.330986) can0 1E175001#0000000000000000 R
(1708581295.331132) can0 1E17D001#0000000000000000 R
(1708581295.331296) can0 1E181001#0000000000000000 R
(1708581295.331432) can0 1E185001#0000000000000000 R
(1708581295.331590) can0 1E189001#000000000000002A R
(1708581295.331743) can0 1E18D001#0000000000000000 R
(1708581295.331855) can0 1E191001#0000000000000000 R
(1708581295.332005) can0 1E179001#0000000000000000 R
(1708581295.332152) can0 1E195001#0000000000000000 R
(1708581295.332299) can0 1E199001#0000000000000000 R
(1708581295.332443) can0 1E19D001#0000000000000000 R
(1708581295.332595) can0 1E1A1001#0000000000000000 R
(1708581295.332743) can0 1E1A5001#0000000000000000 R
(1708581295.332884) can0 1E1A9001#0000000000000000 R
(1708581295.333038) can0 1E1AD001#0000000000000000 R
(1708581295.333174) can0 1E1B1001#0000000000000000 R
(1708581295.333327) can0 1E1B5001#0000000000000000 R
(1708581295.333474) can0 1E1B9001#0000000000000000 R
(1708581295.333621) can0 1E1BD001#0000000000000000 R
(1708581295.333772) can0 1E1C1001#0000000000000000 R
(1708581295.333916) can0 1E1C5001#0000000000000000 R
(1708581295.334069) can0 1E1C9001#0000000000000000 R
(1708581295.334209) can0 1E1CD001#0000000000000000 R
(1708581295.334355) can0 1E021001#42E9624500000000 R
(1708581295.334491) can0 1E025001#BF8E701500000000 R
(1708581295.334633) can0 1E029001#42C8000000000000 R
(1708581295.334785) can0 1E02D001#0000000000000000 R
(1708581295.334928) can0 1E031001#0000000000000026 R
(1708581295.335093) can0 1E001001#000000000002175E R
(1708581295.335240) can0 1E005001#0000000000000020 R
(1708581295.335380) can0 1E009001#409E51BB00000000 R
(1708581295.335524) can0 1E00D001#4000144600000000 R
(1708581295.335719) can0 1E011001#0000000000000000 R
(1708581295.335817) can0 1E015001#414795A800000000 R
(1708581295.335967) can0 1E019001#41F0000000000002 R
(1708581295.336106) can0 1E01D001#42D21D7600000000 R
(1708581295.336249) can0 1E035001#0000000000000028 R
(1708581295.336393) can0 1E039001#4100144600000000 R
(1708581295.336543) can0 1E03D001#0000000000000000 R
(1708581295.336695) can0 1E041001#0000000000000000 R
(1708581295.336839) can0 1E045001#0000000000000000 R
(1708581295.336984) can0 1E049001#4170000000000000 R
(1708581295.337133) can0 1E04D001#000000000000002C R
(1708581295.337277) can0 1E051001#000000000000002C R
(1708581295.337427) can0 1E055001#000000000000002A R
(1708581295.337568) can0 1E059001#429F587D00000000 R
(1708581295.337712) can0 1E05D001#42C406F800000017 R
(1708581295.337857) can0 1E061001#3DC6B6F800000000 R
(1708581295.337998) can0 1E065001#4262501100000000 R
(1708581295.338139) can0 1E069001#42925B0D00000018 R
(1708581295.338279) can0 1E06D001#4143928E00000000 R
(1708581295.338428) can0 1E071001#0000000000000000 R
(1708581295.338571) can0 1E075001#40A4FE9200000000 R
(1708581295.338721) can0 1E079001#0000000000000011 R
(1708581295.338865) can0 1E07D001#000000000000002A R
(1708581295.339014) can0 1E081001#0000000000000000 R
(1708581295.339161) can0 1E085001#0000000000000000 R
(1708581295.339309) can0 1E089001#000000000000002A R
(1708581295.339458) can0 1E08D001#000000000000002A R
(1708581295.339603) can0 1E091001#3F80000000000031 R
(1708581295.339751) can0 1E095001#3F80000000000032 R
(1708581295.339898) can0 1E099001#0000000000000000 R
(1708581295.340045) can0 1E09D001#42B4052000000000 R
(1708581295.340183) can0 1E0A1001#417DB64500000000 R
(1708581295.340325) can0 1E0A5001#4159627200000000 R
(1708581295.340481) can0 1E0A9001#4020000000000000 R
(1708581295.340617) can0 1E0AD001#4034AECE00000000 R
(1708581295.340759) can0 1E0B1001#0000000000000000 R
(1708581295.340914) can0 1E0B5001#0000000000000000 R
(1708581295.341059) can0 1E0B9001#0000000000000000 R
(1708581295.341210) can0 1E0BD001#0000000000000000 R
(1708581295.341360) can0 1E0C1001#0000000000000000 R
(1708581295.341511) can0 1E0C5001#0000000000000000 R
(1708581295.341662) can0 1E0C9001#0000000000000000 R
(1708581295.341805) can0 1E0CD001#0000000000000000 R
(1708581295.341955) can0 1E0D1001#0000000000000000 R
(1708581295.342103) can0 1E0D5001#0000000000000000 R
(1708581295.342249) can0 1E0D9001#410019F200000000 R
(1708581295.342401) can0 1E0DD001#0000000000000000 R
(1708581295.342537) can0 1E0E1001#409E5C6700000000 R
(1708581295.342692) can0 1E0E5001#0000000000000000 R
(1708581295.342830) can0 1E0E9001#BEF6C28000000000 R
(1708581295.342981) can0 1E0ED001#0000000000000000 R
(1708581295.343133) can0 1E0F5001#0000000000000000 R
(1708581295.343276) can0 1E0F9001#0000000000000000 R
(1708581295.343428) can0 1E0FD001#0000000000000000 R
(1708581295.343570) can0 1E101001#0000000000000000 R
(1708581295.343761) can0 1E105001#0000000000000000 R
(1708581295.343874) can0 1E0F1001#0000000000000000 R
(1708581295.344028) can0 1E109001#0000000000000000 R
(1708581295.344169) can0 1E10D001#0000000000000000 R
(1708581295.344343) can0 1E111001#0000000000000000 R
(1708581295.344470) can0 1E115001#0000000000000000 R
(1708581295.344623) can0 1E119001#0000000000000000 R
(1708581295.344753) can0 1E11D001#0000000000000000 R
(1708581295.344897) can0 1E121001#0000000000000000 R
(1708581295.345075) can0 1E125001#0000000000000000 R
(1708581295.345196) can0 1E129001#0000000000000000 R
(1708581295.345360) can0 1E12D001#0000000000000000 R
(1708581295.345480) can0 1E131001#0000000000000000 R
(1708581295.345627) can0 1E135001#0000000000000000 R
(1708581295.345770) can0 1E139001#4974240000000000 R
(1708581295.345915) can0 1E13D001#0000000000000000 R
(1708581295.346064) can0 1E141001#0000000000000000 R
(1708581295.346216) can0 1E145001#0000000000000000 R
(1708581295.346360) can0 1E149001#3F80000000000000 R
(1708581295.346504) can0 1E14D001#0000000000000000 R
(1708581295.346662) can0 1E151001#0000000000000000 R
(1708581295.346795) can0 1E155001#0000000000000000 R
(1708581295.346946) can0 1E159001#0000000000000000 R
(1708581295.347086) can0 1E15D001#40C0000000000000 R
(1708581295.347235) can0 1E161001#4190000000000000 R
(1708581295.347384) can0 1E165001#0000000000000000 R
(1708581295.347530) can0 1E169001#0000000000000000 R
(1708581295.347715) can0 1E16D001#0000000000000000 R
(1708581295.347827) can0 1E171001#0000000000000000 R
(1708581295.347973) can0 1E175001#0000000000000000 R
(1708581295.348114) can0 1E179001#0000000000000000 R
(1708581295.348265) can0 1E17D001#0000000000000000 R
(1708581295.348408) can0 1E181001#0000000000000000 R
(1708581295.348557) can0 1E185001#0000000000000000 R
(1708581295.348702) can0 1E189001#000000000000002A R
(1708581295.348854) can0 1E18D001#0000000000000000 R
(1708581295.349000) can0 1E191001#0000000000000000 R
(1708581295.349143) can0 1E195001#0000000000000000 R
(1708581295.349293) can0 1E199001#0000000000000000 R
(1708581295.349437) can0 1E19D001#0000000000000000 R
(1708581295.349583) can0 1E1A1001#0000000000000000 R
(1708581295.349727) can0 1E1A5001#0000000000000000 R
(1708581295.349873) can0 1E1A9001#0000000000000000 R
(1708581295.350023) can0 1E1AD001#0000000000000000 R
(1708581295.350166) can0 1E1B1001#0000000000000000 R
(1708581295.350317) can0 1E1B5001#0000000000000000 R
(1708581295.350463) can0 1E1B9001#0000000000000000 R
(1708581295.350614) can0 1E1BD001#0000000000000000 R
(1708581295.350761) can0 1E1C1001#0000000000000000 R
(1708581295.350907) can0 1E1C5001#0000000000000000 R
(1708581295.351056) can0 1E1C9001#0000000000000000 R
(1708581295.351202) can0 1E1CD001#0000000000000000 R
(1708581295.351344) can0 1E021001#42E95FE400000000 R
(1708581295.351485) can0 1E025001#BF8E65F000000000 R
(1708581295.351630) can0 1E029001#42C8000000000000 R
(1708581295.351777) can0 1E02D001#0000000000000000 R
(1708581295.351927) can0 1E031001#0000000000000026 R
(1708581295.352091) can0 1E001001#000000000002176E R
(1708581295.352239) can0 1E005001#0000000000000020 R
(1708581295.352383) can0 1E009001#409E67A000000000 R
(1708581295.352527) can0 1E00D001#4000248000000000 R
(1708581295.352677) can0 1E011001#0000000000000000 R
(1708581295.352820) can0 1E015001#4147912400000000 R
(1708581295.352966) can0 1E019001#41F0000000000002 R
(1708581295.353108) can0 1E01D001#42D21E1A00000000 R
(1708581295.353254) can0 1E035001#0000000000000028 R
(1708581295.353395) can0 1E039001#41001D4D00000000 R
(1708581295.353547) can0 1E03D001#0000000000000000 R
(1708581295.353693) can0 1E041001#0000000000000000 R
(1708581295.353842) can0 1E045001#0000000000000000 R
(1708581295.353989) can0 1E049001#4170000000000000 R
(1708581295.354136) can0 1E04D001#000000000000002C R
(1708581295.354283) can0 1E051001#000000000000002C R
(1708581295.354429) can0 1E055001#000000000000002A R
(1708581295.354573) can0 1E059001#429F535400000000 R
(1708581295.354716) can0 1E05D001#42C40E0900000017 R
(1708581295.354860) can0 1E061001#3DAE681F00000000 R
(1708581295.354996) can0 1E065001#42625AE700000000 R
(1708581295.355137) can0 1E069001#4292653F00000018 R
(1708581295.355277) can0 1E06D001#414391E300000000 R
(1708581295.355447) can0 1E071001#0000000000000000 R
(1708581295.355570) can0 1E075001#40A4E59800000000 R
(1708581295.355722) can0 1E079001#0000000000000011 R
(1708581295.355868) can0 1E07D001#000000000000002A R
(1708581295.356018) can0 1E081001#0000000000000000 R
(1708581295.356163) can0 1E085001#0000000000000000 R
(1708581295.356309) can0 1E089001#000000000000002A R
(1708581295.356460) can0 1E08D001#000000000000002A R
(1708581295.356604) can0 1E091001#3F80000000000031 R
(1708581295.356750) can0 1E095001#3F80000000000032 R
(1708581295.356895) can0 1E099001#0000000000000000 R
(1708581295.357041) can0 1E09D001#42B4052A00000000 R
(1708581295.357183) can0 1E0A1001#417DB64500000000 R
(1708581295.357326) can0 1E0A5001#4159625D00000000 R
(1708581295.357465) can0 1E0A9001#4020000000000000 R
(1708581295.357621) can0 1E0AD001#403497DD00000000 R
(1708581295.357760) can0 1E0B1001#0000000000000000 R
(1708581295.357914) can0 1E0B5001#0000000000000000 R
(1708581295.358055) can0 1E0B9001#0000000000000000 R
(1708581295.358210) can0 1E0BD001#0000000000000000 R
(1708581295.358353) can0 1E0C1001#0000000000000000 R
(1708581295.358508) can0 1E0C5001#0000000000000000 R
(1708581295.358653) can0 1E0C9001#0000000000000000 R
(1708581295.358805) can0 1E0CD001#0000000000000000 R
(1708581295.358953) can0 1E0D1001#0000000000000000 R
(1708581295.359111) can0 1E0D5001#0000000000000000 R
(1708581295.359246) can0 1E0D9001#4100223F00000000 R
(1708581295.359390) can0 1E0DD001#0000000000000000 R
(1708581295.359540) can0 1E0E1001#409E61B400000000 R
(1708581295.359746) can0 1E0E5001#0000000000000000 R
(1708581295.359839) can0 1E0E9001#BEF6F4C000000000 R
(1708581295.359983) can0 1E0ED001#0000000000000000 R
(1708581295.360132) can0 1E0F5001#0000000000000000 R
(1708581295.360279) can0 1E0F9001#0000000000000000 R
(1708581295.360433) can0 1E0FD001#0000000000000000 R
(1708581295.360589) can0 1E101001#0000000000000000 R
(1708581295.360762) can0 1E105001#0000000000000000 R
(1708581295.360876) can0 1E0F1001#0000000000000000 R
(1708581295.361024) can0 1E109001#0000000000000000 R
(1708581295.361191) can0 1E10D001#0000000000000000 R
(1708581295.361326) can0 1E111001#0000000000000000 R
(1708581295.361484) can0 1E115001#0000000000000000 R
(1708581295.361624) can0 1E119001#0000000000000000 R
(1708581295.361765) can0 1E11D001#0000000000000000 R
(1708581295.361897) can0 1E121001#0000000000000000 R
(1708581295.362046) can0 1E125001#0000000000000000 R
(1708581295.362187) can0 1E129001#0000000000000000 R
(1708581295.362337) can0 1E12D001#0000000000000000 R
(1708581295.362485) can0 1E131001#0000000000000000 R
(1708581295.362627) can0 1E135001#0000000000000000 R
(1708581295.362772) can0 1E139001#4974240000000000 R
(1708581295.362915) can0 1E13D001#0000000000000000 R
(1708581295.363065) can0 1E141001#0000000000000000 R
(1708581295.363207) can0 1E145001#0000000000000000 R
(1708581295.363363) can0 1E149001#3F80000000000000 R
(1708581295.363502) can0 1E14D001#0000000000000000 R
(1708581295.363649) can0 1E151001#0000000000000000 R
(1708581295.363801) can0 1E155001#0000000000000000 R
(1708581295.363945) can0 1E159001#0000000000000000 R
(1708581295.364087) can0 1E15D001#40C0000000000000 R
(1708581295.364233) can0 1E161001#4190000000000000 R
(1708581295.364386) can0 1E165001#0000000000000000 R
(1708581295.364523) can0 1E169001#0000000000000000 R
(1708581295.364673) can0 1E16D001#0000000000000000 R
(1708581295.364821) can0 1E171001#0000000000000000 R
(1708581295.364968) can0 1E175001#0000000000000000 R
(1708581295.365118) can0 1E17D001#0000000000000000 R
(1708581295.365261) can0 1E181001#0000000000000000 R
(1708581295.365410) can0 1E185001#0000000000000000 R
(1708581295.365555) can0 1E189001#000000000000002A R
(1708581295.365703) can0 1E18D001#0000000000000000 R
(1708581295.365848) can0 1E191001#0000000000000000 R
(1708581295.365994) can0 1E179001#0000000000000000 R
(1708581295.366144) can0 1E195001#0000000000000000 R
(1708581295.366288) can0 1E199001#0000000000000000 R
(1708581295.366442) can0 1E19D001#0000000000000000 R
(1708581295.366581) can0 1E1A1001#0000000000000000 R
(1708581295.366729) can0 1E1A5001#0000000000000000 R
(1708581295.366882) can0 1E1A9001#0000000000000000 R
(1708581295.367021) can0 1E1AD001#0000000000000000 R
(1708581295.367170) can0 1E1B1001#0000000000000000 R
(1708581295.367317) can0 1E1B5001#0000000000000000 R
(1708581295.367467) can0 1E1B9001#0000000000000000 R
(1708581295.367615) can0 1E1BD001#0000000000000000 R
(1708581295.367765) can0 1E1C1001#0000000000000000 R
(1708581295.367910) can0 1E1C5001#0000000000000000 R
(1708581295.368058) can0 1E1C9001#0000000000000000 R
(1708581295.368204) can0 1E1CD001#0000000000000000 R
(1708581295.368350) can0 1E021001#42E9685800000000 R
(1708581295.368498) can0 1E025001#BF8E89FE00000000 R
(1708581295.368629) can0 1E029001#42C8000000000000 R
(1708581295.368781) can0 1E02D001#0000000000000000 R
(1708581295.368925) can0 1E031001#0000000000000026 R
(1708581295.369107) can0 1E001001#0000000000021780 R
(1708581295.369240) can0 1E005001#0000000000000020 R
(1708581295.369382) can0 1E009001#409E5B3E00000000 R
(1708581295.369528) can0 1E00D001#40001E7400000000 R
(1708581295.369676) can0 1E011001#0000000000000000 R
(1708581295.369818) can0 1E015001#414792D800000000 R
(1708581295.369970) can0 1E019001#41F0000000000002 R
(1708581295.370109) can0 1E01D001#42D21E1600000000 R
(1708581295.370250) can0 1E035001#0000000000000028 R
(1708581295.370407) can0 1E039001#41001E7400000000 R
(1708581295.370542) can0 1E03D001#0000000000000000 R
(1708581295.370702) can0 1E041001#0000000000000000 R
(1708581295.370838) can0 1E045001#0000000000000000 R
(1708581295.370988) can0 1E049001#4170000000000000 R
(1708581295.371153) can0 1E04D001#000000000000002C R
(1708581295.371295) can0 1E051001#000000000000002C R
(1708581295.371438) can0 1E055001#000000000000002A R
(1708581295.371577) can0 1E059001#429F525A00000000 R
(1708581295.371766) can0 1E05D001#42C408BA00000017 R
(1708581295.371859) can0 1E061001#3D8654A700000000 R
(1708581295.372001) can0 1E065001#42624D8200000000 R
(1708581295.372139) can0 1E069001#4292712400000018 R
(1708581295.372279) can0 1E06D001#4143963900000000 R
(1708581295.372431) can0 1E071001#0000000000000000 R
(1708581295.372577) can0 1E075001#40A489F900000000 R
(1708581295.372716) can0 1E079001#0000000000000011 R
(1708581295.372878) can0 1E07D001#000000000000002A R
(1708581295.373025) can0 1E081001#0000000000000000 R
(1708581295.373170) can0 1E085001#0000000000000000 R
(1708581295.373315) can0 1E089001#000000000000002A R
(1708581295.373474) can0 1E08D001#000000000000002A R
(1708581295.373612) can0 1E091001#3F80000000000031 R
(1708581295.373767) can0 1E095001#3F80000000000032 R
(1708581295.373890) can0 1E099001#0000000000000000 R
(1708581295.374036) can0 1E09D001#42B4057500000000 R
(1708581295.374176) can0 1E0A1001#417DB64500000000 R
(1708581295.374323) can0 1E0A5001#4159626700000000 R
(1708581295.374463) can0 1E0A9001#4020000000000000 R
(1708581295.374607) can0 1E0AD001#403494C900000000 R
(1708581295.374757) can0 1E0B1001#0000000000000000 R
(1708581295.374908) can0 1E0B5001#0000000000000000 R
(1708581295.375057) can0 1E0B9001#0000000000000000 R
(1708581295.375214) can0 1E0BD001#0000000000000000 R
(1708581295.375355) can0 1E0C1001#0000000000000000 R
(1708581295.375499) can0 1E0C5001#0000000000000000 R
(1708581295.375654) can0 1E0C9001#0000000000000000 R
(1708581295.375794) can0 1E0CD001#0000000000000000 R
(1708581295.375947) can0 1E0D1001#0000000000000000 R
(1708581295.376096) can0 1E0D5001#0000000000000000 R
(1708581295.376278) can0 1E0D9001#4100227000000000 R
(1708581295.376396) can0 1E0DD001#0000000000000000 R
(1708581295.376529) can0 1E0E1001#409E68D400000000 R
(1708581295.376681) can0 1E0E5001#0000000000000000 R
(1708581295.376822) can0 1E0E9001#BEF7224000000000 R
(1708581295.376982) can0 1E0ED001#0000000000000000 R
(1708581295.377126) can0 1E0F5001#0000000000000000 R
(1708581295.377272) can0 1E0F9001#0000000000000000 R
(1708581295.377418) can0 1E0FD001#0000000000000000 R
(1708581295.377571) can0 1E101001#0000000000000000 R
(1708581295.377714) can0 1E105001#0000000000000000 R
(1708581295.377860) can0 1E0F1001#0000000000000000 R
(1708581295.378014) can0 1E109001#0000000000000000 R
(1708581295.378166) can0 1E10D001#0000000000000000 R
(1708581295.378334) can0 1E111001#0000000000000000 R
(1708581295.378462) can0 1E115001#0000000000000000 R
(1708581295.378617) can0 1E119001#0000000000000000 R
(1708581295.378755) can0 1E11D001#0000000000000000 R
(1708581295.378889) can0 1E121001#0000000000000000 R
(1708581295.379037) can0 1E125001#0000000000000000 R
(1708581295.379179) can0 1E129001#0000000000000000 R
(1708581295.379330) can0 1E12D001#0000000000000000 R
(1708581295.379476) can0 1E131001#0000000000000000 R
(1708581295.379626) can0 1E135001#0000000000000000 R
(1708581295.379766) can0 1E139001#4974240000000000 R
(1708581295.379913) can0 1E13D001#0000000000000000 R
(1708581295.380061) can0 1E141001#0000000000000000 R
(1708581295.380213) can0 1E145001#0000000000000000 R
(1708581295.380350) can0 1E149001#3F80000000000000 R
(1708581295.380498) can0 1E14D001#0000000000000000 R
(1708581295.380646) can0 1E151001#0000000000000000 R
(1708581295.380792) can0 1E155001#0000000000000000 R
(1708581295.380936) can0 1E159001#0000000000000000 R
(1708581295.381084) can0 1E15D001#40C0000000000000 R
(1708581295.381226) can0 1E161001#4190000000000000 R
(1708581295.381375) can0 1E165001#0000000000000000 R
(1708581295.381521) can0 1E169001#0000000000000000 R
(1708581295.381665) can0 1E16D001#0000000000000000 R
(1708581295.381831) can0 1E171001#0000000000000000 R
(1708581295.381968) can0 1E175001#0000000000000000 R
(1708581295.382113) can0 1E179001#0000000000000000 R
(1708581295.382262) can0 1E17D001#0000000000000000 R
(1708581295.382417) can0 1E181001#0000000000000000 R
(1708581295.382559) can0 1E185001#0000000000000000 R
(1708581295.382700) can0 1E189001#000000000000002A R
(1708581295.382852) can0 1E18D001#0000000000000000 R
(1708581295.382997) can0 1E191001#0000000000000000 R
(1708581295.383152) can0 1E195001#0000000000000000 R
(1708581295.383296) can0 1E199001#0000000000000000 R
(1708581295.383432) can0 1E19D001#0000000000000000 R
(1708581295.383585) can0 1E1A1001#0000000000000000 R
(1708581295.383730) can0 1E1A5001#0000000000000000 R
(1708581295.383874) can0 1E1A9001#0000000000000000 R
(1708581295.384023) can0 1E1AD001#0000000000000000 R
(1708581295.384168) can0 1E1B1001#0000000000000000 R
(1708581295.384316) can0 1E1B5001#0000000000000000 R
(1708581295.384468) can0 1E1B9001#0000000000000000 R
(1708581295.384617) can0 1E1BD001#0000000000000000 R
(1708581295.384759) can0 1E1C1001#0000000000000000 R
(1708581295.384911) can0 1E1C5001#0000000000000000 R
(1708581295.385053) can0 1E1C9001#0000000000000000 R
(1708581295.385205) can0 1E1CD001#0000000000000000 R
(1708581295.385344) can0 1E021001#42E9653200000000 R
(1708581295.385492) can0 1E025001#BF8E7C8F00000000 R
(1708581295.385631) can0 1E029001#42C8000000000000 R
(1708581295.385781) can0 1E02D001#0000000000000000 R
(1708581295.385928) can0 1E031001#0000000000000026 R
(1708581295.386101) can0 1E001001#0000000000021790 R
(1708581295.386249) can0 1E005001#0000000000000020 R
(1708581295.386383) can0 1E009001#409E5FF300000000 R
(1708581295.386530) can0 1E00D001#400021F500000000 R
(1708581295.386672) can0 1E011001#0000000000000000 R
(1708581295.386817) can0 1E015001#414791D600000000 R
(1708581295.386962) can0 1E019001#41F0000000000002 R
(1708581295.387104) can0 1E01D001#42D21EA900000000 R
(1708581295.387254) can0 1E035001#0000000000000028 R
(1708581295.387399) can0 1E039001#410017D200000000 R
(1708581295.387548) can0 1E03D001#0000000000000000 R
(1708581295.387711) can0 1E041001#0000000000000000 R
(1708581295.387843) can0 1E045001#0000000000000000 R
(1708581295.387987) can0 1E049001#4170000000000000 R
(1708581295.388136) can0 1E04D001#000000000000002C R
(1708581295.388281) can0 1E051001#000000000000002C R
(1708581295.388429) can0 1E055001#000000000000002A R
(1708581295.388572) can0 1E059001#429F502800000000 R
(1708581295.388713) can0 1E05D001#42C40D2A00000017 R
(1708581295.388858) can0 1E061001#3D9C29B100000000 R
(1708581295.388997) can0 1E065001#4262797100000000 R
(1708581295.389138) can0 1E069001#429270BE00000018 R
(1708581295.389283) can0 1E06D001#4143908E00000000 R
(1708581295.389435) can0 1E071001#0000000000000000 R
(1708581295.389577) can0 1E075001#40A594D500000000 R
(1708581295.389725) can0 1E079001#0000000000000011 R
(1708581295.389874) can0 1E07D001#000000000000002A R
(1708581295.390023) can0 1E081001#0000000000000000 R
(1708581295.390179) can0 1E085001#0000000000000000 R
(1708581295.390329) can0 1E089001#000000000000002A R
(1708581295.390468) can0 1E08D001#000000000000002A R
(1708581295.390623) can0 1E091001#3F80000000000031 R
(1708581295.390758) can0 1E095001#3F80000000000032 R
(1708581295.390908) can0 1E099001#0000000000000000 R
(1708581295.391056) can0 1E09D001#42B4059100000000 R
(1708581295.391189) can0 1E0A1001#417DB64500000000 R
(1708581295.391329) can0 1E0A5001#4159625D00000000 R
(1708581295.391468) can0 1E0A9001#4020000000000000 R
(1708581295.391617) can0 1E0AD001#40349E5400000000 R
(1708581295.391761) can0 1E0B1001#0000000000000000 R
(1708581295.391907) can0 1E0B5001#0000000000000000 R
(1708581295.392056) can0 1E0B9001#0000000000000000 R
(1708581295.392213) can0 1E0BD001#0000000000000000 R
(1708581295.392361) can0 1E0C1001#0000000000000000 R
(1708581295.392515) can0 1E0C5001#0000000000000000 R
(1708581295.392654) can0 1E0C9001#0000000000000000 R
(1708581295.392801) can0 1E0CD001#0000000000000000 R
(1708581295.392962) can0 1E0D1001#0000000000000000 R
(1708581295.393099) can0 1E0D5001#0000000000000000 R
(1708581295.393242) can0 1E0D9001#41001EDD00000000 R
(1708581295.393396) can0 1E0DD001#0000000000000000 R
(1708581295.393533) can0 1E0E1001#409E5E6400000000 R
(1708581295.393688) can0 1E0E5001#0000000000000000 R
(1708581295.393827) can0 1E0E9001#BEF6CC6000000000 R
(1708581295.393978) can0 1E0ED001#0000000000000000 R
(1708581295.394126) can0 1E0F5001#0000000000000000 R
(1708581295.394284) can0 1E0F9001#0000000000000000 R
(1708581295.394430) can0 1E0FD001#0000000000000000 R
(1708581295.394596) can0 1E101001#0000000000000000 R
(1708581295.394733) can0 1E105001#0000000000000000 R
(1708581295.394886) can0 1E0F1001#0000000000000000 R
(1708581295.395022) can0 1E109001#0000000000000000 R
(1708581295.395161) can0 1E10D001#0000000000000000 R
(1708581295.395335) can0 1E111001#0000000000000000 R
(1708581295.395460) can0 1E115001#0000000000000000 R
(1708581295.395614) can0 1E119001#0000000000000000 R
(1708581295.395752) can0 1E11D001#0000000000000000 R
(1708581295.395893) can0 1E121001#0000000000000000 R
(1708581295.396037) can0 1E125001#0000000000000000 R
(1708581295.396185) can0 1E129001#0000000000000000 R
(1708581295.396332) can0 1E12D001#0000000000000000 R
(1708581295.396483) can0 1E131001#0000000000000000 R
(1708581295.396623) can0 1E135001#0000000000000000 R
(1708581295.396762) can0 1E139001#4974240000000000 R
(1708581295.396910) can0 1E13D001#0000000000000000 R
(1708581295.397058) can0 1E141001#0000000000000000 R
(1708581295.397205) can0 1E145001#0000000000000000 R
(1708581295.397355) can0 1E149001#3F80000000000000 R
(1708581295.397502) can0 1E14D001#0000000000000000 R
(1708581295.397656) can0 1E151001#0000000000000000 R
(1708581295.397793) can0 1E155001#0000000000000000 R
(1708581295.397938) can0 1E159001#0000000000000000 R
(1708581295.398083) can0 1E15D001#40C0000000000000 R
(1708581295.398228) can0 1E161001#4190000000000000 R
(1708581295.398382) can0 1E165001#0000000000000000 R
(1708581295.398525) can0 1E169001#0000000000000000 R
(1708581295.398674) can0 1E16D001#0000000000000000 R
(1708581295.398824) can0 1E171001#0000000000000000 R
(1708581295.398988) can0 1E175001#0000000000000000 R
(1708581295.399119) can0 1E179001#0000000000000000 R
(1708581295.399259) can0 1E17D001#0000000000000000 R
(1708581295.399408) can0 1E181001#0000000000000000 R
(1708581295.399549) can0 1E185001#0000000000000000 R
(1708581295.399707) can0 1E189001#000000000000002A R
(1708581295.399842) can0 1E18D001#0000000000000000 R
(1708581295.399991) can0 1E191001#0000000000000000 R
(1708581295.400138) can0 1E195001#0000000000000000 R
(1708581295.400286) can0 1E199001#0000000000000000 R
(1708581295.400431) can0 1E19D001#0000000000000000 R
(1708581295.400583) can0 1E1A1001#0000000000000000 R
(1708581295.400724) can0 1E1A5001#0000000000000000 R
(1708581295.400869) can0 1E1A9001#0000000000000000 R
(1708581295.401018) can0 1E1AD001#0000000000000000 R
(1708581295.401162) can0 1E1B1001#0000000000000000 R
(1708581295.401313) can0 1E1B5001#0000000000000000 R
(1708581295.401460) can0 1E1B9001#0000000000000000 R
(1708581295.401612) can0 1E1BD001#0000000000000000 R
(1708581295.401760) can0 1E1C1001#0000000000000000 R
(1708581295.401908) can0 1E1C5001#0000000000000000 R
(1708581295.402055) can0 1E1C9001#0000000000000000 R
(1708581295.402201) can0 1E1CD001#0000000000000000 R
(1708581295.402341) can0 1E021001#42E9670500000000 R
(1708581295.402486) can0 1E025001#BF8E845800000000 R
(1708581295.402626) can0 1E029001#42C8000000000000 R
(1708581295.402773) can0 1E02D001#0000000000000000 R
(1708581295.402922) can0 1E031001#0000000000000026 R
(1708581295.403089) can0 1E001001#00000000000217A2 R
(1708581295.403238) can0 1E005001#0000000000000020 R
(1708581295.403381) can0 1E009001#409E5ECC00000000 R
(1708581295.403524) can0 1E00D001#4000221300000000 R
(1708581295.403705) can0 1E011001#0000000000000000 R
(1708581295.403820) can0 1E015001#414791C900000000 R
(1708581295.403963) can0 1E019001#41F0000000000002 R
(1708581295.404103) can0 1E01D001#42D21F6B00000000 R
(1708581295.404251) can0 1E035001#0000000000000028 R
(1708581295.404393) can0 1E039001#4100221300000000 R
(1708581295.404543) can0 1E03D001#0000000000000000 R
(1708581295.404691) can0 1E041001#0000000000000000 R
(1708581295.404839) can0 1E045001#0000000000000000 R
(1708581295.404982) can0 1E049001#4170000000000000 R
(1708581295.405134) can0 1E04D001#000000000000002C R
(1708581295.405281) can0 1E051001#000000000000002C R
(1708581295.405426) can0 1E055001#000000000000002A R
(1708581295.405573) can0 1E059001#429F513200000000 R
(1708581295.405715) can0 1E05D001#42C40B4F00000017 R
(1708581295.405869) can0 1E061001#3D92D00900000000 R
(1708581295.406003) can0 1E065001#426249E100000000 R
(1708581295.406136) can0 1E069001#4292754C00000018 R
(1708581295.406281) can0 1E06D001#41438D8E00000000 R
(1708581295.406433) can0 1E071001#0000000000000000 R
(1708581295.406574) can0 1E075001#40A5259300000000 R
(1708581295.406728) can0 1E079001#0000000000000011 R
(1708581295.406884) can0 1E07D001#000000000000002A R
(1708581295.407027) can0 1E081001#0000000000000000 R
(1708581295.407175) can0 1E085001#0000000000000000 R
(1708581295.407332) can0 1E089001#000000000000002A R
(1708581295.407492) can0 1E08D001#000000000000002A R
(1708581295.407624) can0 1E091001#3F80000000000031 R
(1708581295.407755) can0 1E095001#3F80000000000032 R
(1708581295.407900) can0 1E099001#0000000000000000 R
(1708581295.408042) can0 1E09D001#42B4057F00000000 R
(1708581295.408187) can0 1E0A1001#417DB64500000000 R
(1708581295.408324) can0 1E0A5001#4159626600000000 R
(1708581295.408467) can0 1E0A9001#4020000000000000 R
(1708581295.408608) can0 1E0AD001#403496F100000000 R
(1708581295.408753) can0 1E0B1001#0000000000000000 R
(1708581295.408899) can0 1E0B5001#0000000000000000 R
(1708581295.409052) can0 1E0B9001#0000000000000000 R
(1708581295.409199) can0 1E0BD001#0000000000000000 R
(1708581295.409352) can0 1E0C1001#0000000000000000 R
(1708581295.409504) can0 1E0C5001#0000000000000000 R
(1708581295.409651) can0 1E0C9001#0000000000000000 R
(1708581295.409797) can0 1E0CD001#0000000000000000 R
(1708581295.409956) can0 1E0D1001#0000000000000000 R
(1708581295.410097) can0 1E0D5001#0000000000000000 R
(1708581295.410240) can0 1E0D9001#41001A1E00000000 R
(1708581295.410390) can0 1E0DD001#0000000000000000 R
(1708581295.410529) can0 1E0E1001#409E589300000000 R
(1708581295.410684) can0 1E0E5001#0000000000000000 R
(1708581295.410835) can0 1E0E9001#BEF699C000000000 R
(1708581295.410989) can0 1E0ED001#0000000000000000 R
(1708581295.411122) can0 1E0F5001#0000000000000000 R
(1708581295.411288) can0 1E0F9001#0000000000000000 R
(1708581295.411420) can0 1E0FD001#0000000000000000 R
(1708581295.411574) can0 1E101001#0000000000000000 R
(1708581295.411722) can0 1E105001#0000000000000000 R
(1708581295.411861) can0 1E0F1001#0000000000000000 R
(1708581295.412010) can0 1E109001#0000000000000000 R
(1708581295.412149) can0 1E10D001#0000000000000000 R
(1708581295.412301) can0 1E111001#0000000000000000 R
(1708581295.412443) can0 1E115001#0000000000000000 R
(1708581295.412591) can0 1E119001#0000000000000000 R
(1708581295.412737) can0 1E11D001#0000000000000000 R
(1708581295.412885) can0 1E121001#0000000000000000 R
(1708581295.413032) can0 1E125001#0000000000000000 R
(1708581295.413175) can0 1E129001#0000000000000000 R
(1708581295.413328) can0 1E12D001#0000000000000000 R
(1708581295.413474) can0 1E131001#0000000000000000 R
(1708581295.413617) can0 1E135001#0000000000000000 R
(1708581295.413764) can0 1E139001#4974240000000000 R
(1708581295.413906) can0 1E13D001#0000000000000000 R
(1708581295.414061) can0 1E141001#0000000000000000 R
(1708581295.414202) can0 1E145001#0000000000000000 R
(1708581295.414361) can0 1E149001#3F80000000000000 R
(1708581295.414495) can0 1E14D001#0000000000000000 R
